!Agilent Technologies,E5071B,MY42100491,A.09.10
!Date: Wed Jan 31 19:15:19 2018
!Data & Calibration Information:
!Freq	S11:SOLT1(ON)
# Hz S dB R 50
500000000	-2.068116e-001	-5.255208e+001
505000000	-2.113017e-001	-5.404400e+001
510000000	-2.197227e-001	-5.547948e+001
515000000	-2.380505e-001	-5.712734e+001
520000000	-2.368597e-001	-5.863650e+001
525000000	-2.669925e-001	-6.043405e+001
530000000	-2.958112e-001	-6.196340e+001
535000000	-2.919993e-001	-6.380681e+001
540000000	-2.908265e-001	-6.582365e+001
545000000	-3.135055e-001	-6.769335e+001
550000000	-3.440310e-001	-6.981387e+001
555000000	-3.381097e-001	-7.211900e+001
560000000	-3.768865e-001	-7.421419e+001
565000000	-4.079618e-001	-7.676427e+001
570000000	-4.351124e-001	-7.933303e+001
575000000	-4.384710e-001	-8.181541e+001
580000000	-4.943217e-001	-8.465681e+001
585000000	-5.176130e-001	-8.759079e+001
590000000	-5.500634e-001	-9.069084e+001
595000000	-5.964084e-001	-9.396796e+001
600000000	-6.463243e-001	-9.720167e+001
605000000	-7.162603e-001	-1.010742e+002
610000000	-7.405948e-001	-1.047431e+002
615000000	-8.244959e-001	-1.091140e+002
620000000	-9.013295e-001	-1.133322e+002
625000000	-9.683870e-001	-1.180489e+002
630000000	-1.089819e+000	-1.229903e+002
635000000	-1.173266e+000	-1.282276e+002
640000000	-1.298655e+000	-1.337591e+002
645000000	-1.447468e+000	-1.397361e+002
650000000	-1.574544e+000	-1.460521e+002
655000000	-1.762534e+000	-1.525755e+002
660000000	-1.916301e+000	-1.596419e+002
665000000	-2.149643e+000	-1.673899e+002
670000000	-2.370096e+000	-1.755358e+002
675000000	-2.630814e+000	1.757033e+002
680000000	-2.932401e+000	1.663704e+002
685000000	-3.287249e+000	1.563878e+002
690000000	-3.662811e+000	1.454384e+002
695000000	-4.066355e+000	1.336878e+002
700000000	-4.540438e+000	1.210346e+002
705000000	-5.101275e+000	1.079491e+002
710000000	-5.642405e+000	9.330662e+001
715000000	-6.176453e+000	7.813840e+001
720000000	-6.743608e+000	6.157582e+001
725000000	-7.303233e+000	4.424446e+001
730000000	-7.779864e+000	2.640591e+001
735000000	-8.051403e+000	8.151348e+000
740000000	-8.201752e+000	-1.065979e+001
745000000	-8.144647e+000	-2.874696e+001
750000000	-7.998884e+000	-4.632265e+001
755000000	-7.841575e+000	-6.285068e+001
760000000	-7.503612e+000	-7.770138e+001
765000000	-7.208758e+000	-9.167113e+001
770000000	-6.971056e+000	-1.041504e+002
775000000	-6.683034e+000	-1.152413e+002
780000000	-6.395788e+000	-1.249730e+002
785000000	-6.130126e+000	-1.337389e+002
790000000	-5.790704e+000	-1.414906e+002
795000000	-5.421419e+000	-1.486590e+002
800000000	-5.039716e+000	-1.556983e+002
805000000	-4.656292e+000	-1.627614e+002
810000000	-4.357997e+000	-1.693849e+002
815000000	-4.101754e+000	-1.753851e+002
820000000	-3.828813e+000	1.786893e+002
825000000	-3.597368e+000	1.731674e+002
830000000	-3.427952e+000	1.678446e+002
835000000	-3.262629e+000	1.630582e+002
840000000	-3.107280e+000	1.587027e+002
845000000	-2.916643e+000	1.542530e+002
850000000	-2.788998e+000	1.500448e+002
855000000	-2.650950e+000	1.462757e+002
860000000	-2.549667e+000	1.425166e+002
865000000	-2.462168e+000	1.389112e+002
870000000	-2.369755e+000	1.355475e+002
875000000	-2.331422e+000	1.324424e+002
880000000	-2.291026e+000	1.295793e+002
885000000	-2.265904e+000	1.270881e+002
890000000	-2.215056e+000	1.247261e+002
895000000	-2.160022e+000	1.222026e+002
900000000	-2.108573e+000	1.203739e+002
905000000	-2.066932e+000	1.183384e+002
910000000	-1.993165e+000	1.165265e+002
915000000	-1.888854e+000	1.145956e+002
920000000	-1.820177e+000	1.128620e+002
925000000	-1.756120e+000	1.109196e+002
930000000	-1.690359e+000	1.091628e+002
935000000	-1.622293e+000	1.075892e+002
940000000	-1.574254e+000	1.059317e+002
945000000	-1.511674e+000	1.043674e+002
950000000	-1.442173e+000	1.029045e+002
955000000	-1.388438e+000	1.012490e+002
960000000	-1.301955e+000	9.989452e+001
965000000	-1.278939e+000	9.825753e+001
970000000	-1.246229e+000	9.678496e+001
975000000	-1.227377e+000	9.524836e+001
980000000	-1.211888e+000	9.398553e+001
985000000	-1.212164e+000	9.285204e+001
990000000	-1.206987e+000	9.169276e+001
995000000	-1.178209e+000	9.046967e+001
1000000000	-1.176027e+000	8.949284e+001
1005000000	-1.153388e+000	8.861235e+001
1010000000	-1.139953e+000	8.757513e+001
1015000000	-1.129064e+000	8.666270e+001
1020000000	-1.099142e+000	8.583597e+001
1025000000	-1.087793e+000	8.491422e+001
1030000000	-1.071772e+000	8.402258e+001
1035000000	-1.058707e+000	8.333535e+001
1040000000	-1.012082e+000	8.248251e+001
1045000000	-9.928936e-001	8.174388e+001
1050000000	-9.721955e-001	8.102346e+001
1055000000	-9.530395e-001	8.033443e+001
1060000000	-8.017558e-001	7.904110e+001
1065000000	-8.869280e-001	7.873658e+001
1070000000	-8.611985e-001	7.797406e+001
1075000000	-8.350849e-001	7.717254e+001
1080000000	-8.144944e-001	7.633355e+001
1085000000	-8.093857e-001	7.552659e+001
1090000000	-7.870679e-001	7.480510e+001
1095000000	-7.684543e-001	7.427051e+001
1100000000	-7.583845e-001	7.340943e+001
1105000000	-7.397161e-001	7.284490e+001
1110000000	-7.457219e-001	7.205664e+001
1115000000	-7.328559e-001	7.154823e+001
1120000000	-7.307952e-001	7.081859e+001
1125000000	-7.309613e-001	7.014136e+001
1130000000	-7.446161e-001	6.963695e+001
1135000000	-7.389765e-001	6.902238e+001
1140000000	-7.265369e-001	6.847808e+001
1145000000	-7.181596e-001	6.797218e+001
1150000000	-6.853619e-001	6.742124e+001
1155000000	-6.991669e-001	6.683152e+001
1160000000	-6.864113e-001	6.633590e+001
1165000000	-6.628161e-001	6.563271e+001
1170000000	-6.530563e-001	6.512822e+001
1175000000	-6.634923e-001	6.449917e+001
1180000000	-6.386004e-001	6.386549e+001
1185000000	-6.481166e-001	6.344306e+001
1190000000	-6.332758e-001	6.275606e+001
1195000000	-6.213616e-001	6.218855e+001
1200000000	-6.212606e-001	6.160597e+001
1205000000	-6.086643e-001	6.103482e+001
1210000000	-6.149849e-001	6.063319e+001
1215000000	-6.200889e-001	6.001102e+001
1220000000	-6.180202e-001	5.949122e+001
1225000000	-6.231236e-001	5.891331e+001
1230000000	-6.172472e-001	5.847963e+001
1235000000	-6.290977e-001	5.789249e+001
1240000000	-5.923722e-001	5.717826e+001
1245000000	-6.406636e-001	5.663354e+001
1250000000	-6.363190e-001	5.610328e+001
1255000000	-6.219201e-001	5.553257e+001
1260000000	-6.289128e-001	5.482910e+001
1265000000	-6.445795e-001	5.433399e+001
1270000000	-6.367699e-001	5.388168e+001
1275000000	-6.446371e-001	5.324272e+001
1280000000	-6.517833e-001	5.266987e+001
1285000000	-6.513445e-001	5.210125e+001
1290000000	-6.706092e-001	5.146067e+001
1295000000	-6.659559e-001	5.087646e+001
1300000000	-6.637729e-001	5.060223e+001
1305000000	-6.753686e-001	4.971536e+001
1310000000	-6.757082e-001	4.918307e+001
1315000000	-6.848791e-001	4.852630e+001
1320000000	-7.211528e-001	4.788498e+001
1325000000	-7.207402e-001	4.714373e+001
1330000000	-7.198679e-001	4.663549e+001
1335000000	-7.260159e-001	4.608302e+001
1340000000	-7.429182e-001	4.539189e+001
1345000000	-7.606611e-001	4.456542e+001
1350000000	-7.733232e-001	4.389363e+001
1355000000	-7.851244e-001	4.343925e+001
1360000000	-7.936338e-001	4.266917e+001
1365000000	-8.084753e-001	4.209671e+001
1370000000	-8.096928e-001	4.140445e+001
1375000000	-8.367475e-001	4.065077e+001
1380000000	-8.462399e-001	3.986837e+001
1385000000	-8.629642e-001	3.908478e+001
1390000000	-8.921172e-001	3.836812e+001
1395000000	-9.049104e-001	3.752209e+001
1400000000	-9.329737e-001	3.664072e+001
1405000000	-9.669900e-001	3.577339e+001
1410000000	-1.003572e+000	3.506558e+001
1415000000	-1.033291e+000	3.430597e+001
1420000000	-1.063285e+000	3.330635e+001
1425000000	-1.082032e+000	3.257886e+001
1430000000	-1.126113e+000	3.174415e+001
1435000000	-1.150777e+000	3.077162e+001
1440000000	-1.169821e+000	2.974014e+001
1445000000	-1.206030e+000	2.881818e+001
1450000000	-1.235197e+000	2.786497e+001
1455000000	-1.303327e+000	2.689800e+001
1460000000	-1.358906e+000	2.594651e+001
1465000000	-1.405375e+000	2.503765e+001
1470000000	-1.452118e+000	2.394329e+001
1475000000	-1.494663e+000	2.287342e+001
1480000000	-1.536866e+000	2.186424e+001
1485000000	-1.598226e+000	2.061557e+001
1490000000	-1.647017e+000	1.959203e+001
1495000000	-1.709000e+000	1.846020e+001
1500000000	-1.806578e+000	1.717718e+001
1505000000	-1.872380e+000	1.588321e+001
1510000000	-1.966506e+000	1.486852e+001
1515000000	-2.037080e+000	1.364364e+001
1520000000	-2.110804e+000	1.242997e+001
1525000000	-2.183880e+000	1.105525e+001
1530000000	-2.261341e+000	9.514481e+000
1535000000	-2.359782e+000	8.080750e+000
1540000000	-2.479805e+000	6.652616e+000
1545000000	-2.604092e+000	5.302873e+000
1550000000	-2.694420e+000	3.803164e+000
1555000000	-2.796207e+000	2.304581e+000
1560000000	-2.932547e+000	6.243793e-001
1565000000	-3.074466e+000	-1.009224e+000
1570000000	-3.234303e+000	-2.631873e+000
1575000000	-3.378295e+000	-3.903142e+000
1580000000	-3.522460e+000	-5.525327e+000
1585000000	-3.681184e+000	-7.059455e+000
1590000000	-3.824563e+000	-8.764282e+000
1595000000	-3.973238e+000	-1.046003e+001
1600000000	-4.122518e+000	-1.236303e+001
1605000000	-4.309507e+000	-1.444067e+001
1610000000	-4.511838e+000	-1.649281e+001
1615000000	-4.739967e+000	-1.853579e+001
1620000000	-5.006706e+000	-2.065629e+001
1625000000	-5.267347e+000	-2.257557e+001
1630000000	-5.531751e+000	-2.442595e+001
1635000000	-5.793904e+000	-2.649536e+001
1640000000	-6.048337e+000	-2.842413e+001
1645000000	-6.323869e+000	-3.079841e+001
1650000000	-6.619328e+000	-3.297129e+001
1655000000	-6.911802e+000	-3.522225e+001
1660000000	-7.217016e+000	-3.767645e+001
1665000000	-7.573391e+000	-4.009944e+001
1670000000	-7.930959e+000	-4.234802e+001
1675000000	-8.251038e+000	-4.478604e+001
1680000000	-8.614653e+000	-4.727472e+001
1685000000	-8.956690e+000	-4.958741e+001
1690000000	-9.210626e+000	-5.224443e+001
1695000000	-9.502415e+000	-5.576363e+001
1700000000	-9.885216e+000	-5.954562e+001
1705000000	-1.033251e+001	-6.371622e+001
1710000000	-1.090984e+001	-6.806394e+001
1715000000	-1.155350e+001	-7.147366e+001
1720000000	-1.214548e+001	-7.443780e+001
1725000000	-1.254771e+001	-7.755298e+001
1730000000	-1.299254e+001	-8.258920e+001
1735000000	-1.362122e+001	-8.691933e+001
1740000000	-1.412254e+001	-9.088233e+001
1745000000	-1.449998e+001	-9.565410e+001
1750000000	-1.491818e+001	-1.011056e+002
1755000000	-1.530192e+001	-1.069759e+002
1760000000	-1.563961e+001	-1.132312e+002
1765000000	-1.598026e+001	-1.204454e+002
1770000000	-1.646599e+001	-1.280868e+002
1775000000	-1.680492e+001	-1.335879e+002
1780000000	-1.694916e+001	-1.394388e+002
1785000000	-1.697092e+001	-1.460212e+002
1790000000	-1.704241e+001	-1.526883e+002
1795000000	-1.697576e+001	-1.582559e+002
1800000000	-1.673151e+001	-1.640719e+002
1805000000	-1.645289e+001	-1.705668e+002
1810000000	-1.620598e+001	-1.771249e+002
1815000000	-1.608758e+001	1.773132e+002
1820000000	-1.575937e+001	1.722408e+002
1825000000	-1.558233e+001	1.663413e+002
1830000000	-1.559163e+001	1.611910e+002
1835000000	-1.560107e+001	1.580941e+002
1840000000	-1.542110e+001	1.556935e+002
1845000000	-1.518093e+001	1.535161e+002
1850000000	-1.486160e+001	1.512900e+002
1855000000	-1.461679e+001	1.489378e+002
1860000000	-1.432519e+001	1.475645e+002
1865000000	-1.383790e+001	1.453382e+002
1870000000	-1.349938e+001	1.423815e+002
1875000000	-1.318648e+001	1.396557e+002
1880000000	-1.296510e+001	1.361917e+002
1885000000	-1.290324e+001	1.336430e+002
1890000000	-1.285437e+001	1.317665e+002
1895000000	-1.283782e+001	1.303194e+002
1900000000	-1.269117e+001	1.299551e+002
1905000000	-1.240572e+001	1.290677e+002
1910000000	-1.217301e+001	1.275320e+002
1915000000	-1.193832e+001	1.257436e+002
1920000000	-1.175149e+001	1.231644e+002
1925000000	-1.164302e+001	1.214752e+002
1930000000	-1.161038e+001	1.195251e+002
1935000000	-1.154065e+001	1.183836e+002
1940000000	-1.150387e+001	1.176043e+002
1945000000	-1.130852e+001	1.165129e+002
1950000000	-1.119459e+001	1.151158e+002
1955000000	-1.100340e+001	1.136603e+002
1960000000	-1.093985e+001	1.118306e+002
1965000000	-1.094621e+001	1.103459e+002
1970000000	-1.091958e+001	1.091912e+002
1975000000	-1.089536e+001	1.084114e+002
1980000000	-1.087118e+001	1.072881e+002
1985000000	-1.083934e+001	1.065610e+002
1990000000	-1.070079e+001	1.059019e+002
1995000000	-1.062007e+001	1.048103e+002
2000000000	-1.054975e+001	1.037141e+002
2005000000	-1.044650e+001	1.024865e+002
2010000000	-1.039577e+001	1.008262e+002
2015000000	-1.036111e+001	9.933732e+001
2020000000	-1.043452e+001	9.774154e+001
2025000000	-1.051600e+001	9.670915e+001
2030000000	-1.053922e+001	9.627068e+001
2035000000	-1.048908e+001	9.557569e+001
2040000000	-1.040613e+001	9.425298e+001
2045000000	-1.049778e+001	9.274728e+001
2050000000	-1.059630e+001	9.207520e+001
2055000000	-1.060244e+001	9.141096e+001
2060000000	-1.064401e+001	9.085261e+001
2065000000	-1.060753e+001	9.041143e+001
2070000000	-1.051242e+001	8.958038e+001
2075000000	-1.042652e+001	8.805663e+001
2080000000	-1.043090e+001	8.644183e+001
2085000000	-1.050130e+001	8.497884e+001
2090000000	-1.054723e+001	8.409789e+001
2095000000	-1.060970e+001	8.327500e+001
2100000000	-1.064084e+001	8.220256e+001
2105000000	-1.067572e+001	8.126488e+001
2110000000	-1.074725e+001	8.017807e+001
2115000000	-1.079739e+001	7.977867e+001
2120000000	-1.078013e+001	7.875572e+001
2125000000	-1.071114e+001	7.784438e+001
2130000000	-1.062179e+001	7.616649e+001
2135000000	-1.063769e+001	7.427985e+001
2140000000	-1.075253e+001	7.218899e+001
2145000000	-1.091439e+001	7.062936e+001
2150000000	-1.101492e+001	6.942275e+001
2155000000	-1.106548e+001	6.781327e+001
2160000000	-1.118081e+001	6.606687e+001
2165000000	-1.137218e+001	6.479757e+001
2170000000	-1.144059e+001	6.364011e+001
2175000000	-1.156217e+001	6.213529e+001
2180000000	-1.170265e+001	6.091693e+001
2185000000	-1.179821e+001	5.984984e+001
2190000000	-1.181874e+001	5.886361e+001
2195000000	-1.180987e+001	5.710623e+001
2200000000	-1.184437e+001	5.462426e+001
2205000000	-1.202997e+001	5.244890e+001
2210000000	-1.217146e+001	5.060173e+001
2215000000	-1.230920e+001	4.823975e+001
2220000000	-1.249084e+001	4.643289e+001
2225000000	-1.265310e+001	4.468107e+001
2230000000	-1.279050e+001	4.295144e+001
2235000000	-1.293259e+001	4.052031e+001
2240000000	-1.315047e+001	3.815461e+001
2245000000	-1.324340e+001	3.631019e+001
2250000000	-1.338179e+001	3.383170e+001
2255000000	-1.349579e+001	3.166404e+001
2260000000	-1.349913e+001	2.936940e+001
2265000000	-1.351911e+001	2.559183e+001
2270000000	-1.364980e+001	2.217062e+001
2275000000	-1.378777e+001	1.855201e+001
2280000000	-1.387165e+001	1.537161e+001
2285000000	-1.396173e+001	1.156929e+001
2290000000	-1.406084e+001	7.877257e+000
2295000000	-1.411727e+001	4.271709e+000
2300000000	-1.408930e+001	1.620209e-001
2305000000	-1.418047e+001	-4.433176e+000
2310000000	-1.432642e+001	-8.950721e+000
2315000000	-1.450293e+001	-1.294245e+001
2320000000	-1.458443e+001	-1.620542e+001
2325000000	-1.460083e+001	-1.925902e+001
2330000000	-1.440694e+001	-2.210272e+001
2335000000	-1.419847e+001	-2.573189e+001
2340000000	-1.390555e+001	-2.961644e+001
2345000000	-1.368418e+001	-3.386100e+001
2350000000	-1.345670e+001	-3.775581e+001
2355000000	-1.313496e+001	-4.217604e+001
2360000000	-1.289514e+001	-4.641846e+001
2365000000	-1.263548e+001	-5.007650e+001
2370000000	-1.228339e+001	-5.445601e+001
2375000000	-1.206087e+001	-5.905098e+001
2380000000	-1.191917e+001	-6.254531e+001
2385000000	-1.166993e+001	-6.585231e+001
2390000000	-1.141244e+001	-6.913258e+001
2395000000	-1.124614e+001	-7.212221e+001
2400000000	-1.103628e+001	-7.501133e+001
2405000000	-1.077967e+001	-7.735289e+001
2410000000	-1.046724e+001	-7.970945e+001
2415000000	-1.016719e+001	-8.201929e+001
2420000000	-9.855182e+000	-8.445084e+001
2425000000	-9.553496e+000	-8.678300e+001
2430000000	-9.292069e+000	-8.917581e+001
2435000000	-9.041424e+000	-9.120817e+001
2440000000	-8.699775e+000	-9.341037e+001
2445000000	-8.419586e+000	-9.594110e+001
2450000000	-8.152626e+000	-9.823898e+001
2455000000	-7.955454e+000	-1.004279e+002
2460000000	-7.674773e+000	-1.022542e+002
2465000000	-7.470842e+000	-1.042620e+002
2470000000	-7.282131e+000	-1.061872e+002
2475000000	-7.048511e+000	-1.079475e+002
2480000000	-6.848203e+000	-1.096423e+002
2485000000	-6.659205e+000	-1.113506e+002
2490000000	-6.445343e+000	-1.128491e+002
2495000000	-6.239407e+000	-1.145671e+002
2500000000	-6.058430e+000	-1.158969e+002
2505000000	-5.858716e+000	-1.172486e+002
2510000000	-5.624425e+000	-1.184809e+002
2515000000	-5.414645e+000	-1.199000e+002
2520000000	-5.202546e+000	-1.217105e+002
2525000000	-5.058458e+000	-1.232286e+002
2530000000	-4.900311e+000	-1.245259e+002
2535000000	-4.743228e+000	-1.260139e+002
2540000000	-4.587756e+000	-1.272175e+002
2545000000	-4.428489e+000	-1.287806e+002
2550000000	-4.335579e+000	-1.302897e+002
2555000000	-4.250304e+000	-1.313560e+002
2560000000	-4.129413e+000	-1.322835e+002
2565000000	-3.989539e+000	-1.334139e+002
2570000000	-3.872847e+000	-1.346796e+002
2575000000	-3.791777e+000	-1.357756e+002
2580000000	-3.655518e+000	-1.366929e+002
2585000000	-3.543016e+000	-1.376912e+002
2590000000	-3.454032e+000	-1.386809e+002
2595000000	-3.372710e+000	-1.397069e+002
2600000000	-3.248272e+000	-1.403884e+002
2605000000	-3.164250e+000	-1.413147e+002
2610000000	-3.076400e+000	-1.422244e+002
2615000000	-2.974999e+000	-1.429407e+002
2620000000	-2.884315e+000	-1.437577e+002
2625000000	-2.798423e+000	-1.445903e+002
2630000000	-2.727755e+000	-1.453856e+002
2635000000	-2.651711e+000	-1.461540e+002
2640000000	-2.559457e+000	-1.468965e+002
2645000000	-2.499181e+000	-1.474672e+002
2650000000	-2.442007e+000	-1.483543e+002
2655000000	-2.378194e+000	-1.490856e+002
2660000000	-2.298811e+000	-1.497027e+002
2665000000	-2.221247e+000	-1.503510e+002
2670000000	-2.163623e+000	-1.509176e+002
2675000000	-2.092698e+000	-1.515449e+002
2680000000	-2.017463e+000	-1.521358e+002
2685000000	-1.971882e+000	-1.529933e+002
2690000000	-1.950575e+000	-1.535841e+002
2695000000	-1.890704e+000	-1.540722e+002
2700000000	-1.860213e+000	-1.545013e+002
2705000000	-1.801088e+000	-1.549465e+002
2710000000	-1.763590e+000	-1.554192e+002
2715000000	-1.703504e+000	-1.559096e+002
2720000000	-1.641286e+000	-1.564001e+002
2725000000	-1.585973e+000	-1.569279e+002
2730000000	-1.562337e+000	-1.574021e+002
2735000000	-1.532655e+000	-1.578001e+002
2740000000	-1.489478e+000	-1.582188e+002
2745000000	-1.441969e+000	-1.587349e+002
2750000000	-1.421236e+000	-1.590558e+002
2755000000	-1.322898e+000	-1.592308e+002
2760000000	-1.302340e+000	-1.598818e+002
2765000000	-1.283933e+000	-1.601426e+002
2770000000	-1.241922e+000	-1.606000e+002
2775000000	-1.211019e+000	-1.610152e+002
2780000000	-1.189343e+000	-1.612808e+002
2785000000	-1.153043e+000	-1.616243e+002
2790000000	-1.115736e+000	-1.621196e+002
2795000000	-1.103296e+000	-1.621496e+002
2800000000	-1.080560e+000	-1.623761e+002
2805000000	-1.061044e+000	-1.626084e+002
2810000000	-1.047670e+000	-1.630580e+002
2815000000	-9.883738e-001	-1.632593e+002
2820000000	-9.527869e-001	-1.633703e+002
2825000000	-9.294086e-001	-1.636626e+002
2830000000	-9.050714e-001	-1.638610e+002
2835000000	-8.750573e-001	-1.640281e+002
2840000000	-8.388833e-001	-1.642687e+002
2845000000	-8.217386e-001	-1.644903e+002
2850000000	-8.133847e-001	-1.646576e+002
2855000000	-7.913628e-001	-1.649039e+002
2860000000	-7.467226e-001	-1.650598e+002
2865000000	-7.471757e-001	-1.653857e+002
2870000000	-7.063968e-001	-1.655090e+002
2875000000	-7.014965e-001	-1.656483e+002
2880000000	-6.935964e-001	-1.657269e+002
2885000000	-6.634823e-001	-1.659738e+002
2890000000	-6.479754e-001	-1.659638e+002
2895000000	-6.284661e-001	-1.662786e+002
2900000000	-5.906107e-001	-1.663076e+002
2905000000	-5.981867e-001	-1.664969e+002
2910000000	-5.653249e-001	-1.666006e+002
2915000000	-5.509243e-001	-1.666253e+002
2920000000	-5.404782e-001	-1.669069e+002
2925000000	-5.228291e-001	-1.668033e+002
2930000000	-5.060384e-001	-1.670009e+002
2935000000	-4.939158e-001	-1.671583e+002
2940000000	-5.050597e-001	-1.672622e+002
2945000000	-4.600001e-001	-1.673796e+002
2950000000	-4.494729e-001	-1.673807e+002
2955000000	-4.320109e-001	-1.675054e+002
