!Agilent Technologies,E5071B,MY42100491,A.09.10
!Date: Wed Jan 24 19:39:20 2018
!Data & Calibration Information:
!Freq	S11:SOLT1(ON)
# Hz S dB R 50
500000000	-1.264841e-001	-3.319669e+001
505000000	-1.509954e-001	-3.386055e+001
510000000	-1.355818e-001	-3.445957e+001
515000000	-1.556073e-001	-3.548746e+001
520000000	-1.623291e-001	-3.604396e+001
525000000	-1.667647e-001	-3.692752e+001
530000000	-1.735844e-001	-3.772524e+001
535000000	-1.578685e-001	-3.860013e+001
540000000	-1.500160e-001	-3.935273e+001
545000000	-1.583366e-001	-4.025957e+001
550000000	-1.599036e-001	-4.121938e+001
555000000	-1.771718e-001	-4.222406e+001
560000000	-1.847148e-001	-4.319764e+001
565000000	-1.988521e-001	-4.405313e+001
570000000	-1.911864e-001	-4.531252e+001
575000000	-2.014993e-001	-4.618968e+001
580000000	-1.858497e-001	-4.736928e+001
585000000	-2.279080e-001	-4.838715e+001
590000000	-2.304036e-001	-4.948146e+001
595000000	-2.613377e-001	-5.098024e+001
600000000	-2.509822e-001	-5.206091e+001
605000000	-2.908178e-001	-5.352572e+001
610000000	-2.655999e-001	-5.488489e+001
615000000	-2.771626e-001	-5.629810e+001
620000000	-2.970583e-001	-5.777207e+001
625000000	-3.055000e-001	-5.933994e+001
630000000	-3.340441e-001	-6.109945e+001
635000000	-3.262706e-001	-6.274801e+001
640000000	-3.524151e-001	-6.457305e+001
645000000	-3.718855e-001	-6.646412e+001
650000000	-3.911116e-001	-6.824363e+001
655000000	-3.955331e-001	-7.061739e+001
660000000	-4.268346e-001	-7.238205e+001
665000000	-4.793889e-001	-7.462584e+001
670000000	-4.933359e-001	-7.707506e+001
675000000	-5.259048e-001	-7.943383e+001
680000000	-5.438251e-001	-8.204769e+001
685000000	-5.859043e-001	-8.473333e+001
690000000	-6.203089e-001	-8.750214e+001
695000000	-6.657137e-001	-9.049051e+001
700000000	-6.869267e-001	-9.354597e+001
705000000	-7.366706e-001	-9.678865e+001
710000000	-8.032474e-001	-1.001766e+002
715000000	-8.714042e-001	-1.039333e+002
720000000	-9.159188e-001	-1.078032e+002
725000000	-1.013630e+000	-1.116472e+002
730000000	-1.094346e+000	-1.159763e+002
735000000	-1.191180e+000	-1.205033e+002
740000000	-1.303445e+000	-1.252486e+002
745000000	-1.390792e+000	-1.304125e+002
750000000	-1.517348e+000	-1.355304e+002
755000000	-1.659602e+000	-1.410522e+002
760000000	-1.830224e+000	-1.470216e+002
765000000	-1.958136e+000	-1.530919e+002
770000000	-2.185472e+000	-1.598549e+002
775000000	-2.389689e+000	-1.665997e+002
780000000	-2.624360e+000	-1.735114e+002
785000000	-2.857642e+000	1.791906e+002
790000000	-3.122336e+000	1.711668e+002
795000000	-3.410339e+000	1.631714e+002
800000000	-3.728123e+000	1.545079e+002
805000000	-4.061742e+000	1.457158e+002
810000000	-4.416013e+000	1.365369e+002
815000000	-4.808194e+000	1.267095e+002
820000000	-5.283469e+000	1.168660e+002
825000000	-5.728200e+000	1.068735e+002
830000000	-6.193882e+000	9.675218e+001
835000000	-6.660597e+000	8.641353e+001
840000000	-7.165458e+000	7.577893e+001
845000000	-7.601045e+000	6.468107e+001
850000000	-8.119388e+000	5.349259e+001
855000000	-8.689671e+000	4.182008e+001
860000000	-9.190861e+000	3.045752e+001
865000000	-9.586612e+000	1.848366e+001
870000000	-9.972231e+000	5.717570e+000
875000000	-1.039794e+001	-7.524921e+000
880000000	-1.077808e+001	-2.058189e+001
885000000	-1.112177e+001	-3.397965e+001
890000000	-1.140789e+001	-4.617659e+001
895000000	-1.146039e+001	-5.819793e+001
900000000	-1.141237e+001	-6.959022e+001
905000000	-1.118149e+001	-8.030362e+001
910000000	-1.086645e+001	-9.045233e+001
915000000	-1.039085e+001	-9.997015e+001
920000000	-9.880783e+000	-1.092295e+002
925000000	-9.371260e+000	-1.178476e+002
930000000	-8.811869e+000	-1.266771e+002
935000000	-8.390936e+000	-1.345624e+002
940000000	-7.953003e+000	-1.412685e+002
945000000	-7.411337e+000	-1.479478e+002
950000000	-6.924450e+000	-1.549435e+002
955000000	-6.578229e+000	-1.613867e+002
960000000	-6.244011e+000	-1.671276e+002
965000000	-5.921117e+000	-1.725800e+002
970000000	-5.638563e+000	-1.776115e+002
975000000	-5.374154e+000	1.778754e+002
980000000	-5.093403e+000	1.736256e+002
985000000	-4.811826e+000	1.693706e+002
990000000	-4.576431e+000	1.652430e+002
995000000	-4.362673e+000	1.617145e+002
1000000000	-4.150003e+000	1.581213e+002
1005000000	-3.999891e+000	1.545138e+002
1010000000	-3.833725e+000	1.514304e+002
1015000000	-3.658816e+000	1.483372e+002
1020000000	-3.512440e+000	1.456304e+002
1025000000	-3.352957e+000	1.429961e+002
1030000000	-3.223007e+000	1.404006e+002
1035000000	-3.110952e+000	1.380180e+002
1040000000	-3.002672e+000	1.357907e+002
1045000000	-2.846486e+000	1.337230e+002
1050000000	-2.724116e+000	1.313827e+002
1055000000	-2.597475e+000	1.292512e+002
1060000000	-2.518584e+000	1.272005e+002
1065000000	-2.427363e+000	1.251248e+002
1070000000	-2.350360e+000	1.232524e+002
1075000000	-2.275065e+000	1.214699e+002
1080000000	-2.223446e+000	1.197925e+002
1085000000	-2.119860e+000	1.182543e+002
1090000000	-2.046096e+000	1.167837e+002
1095000000	-1.979208e+000	1.152927e+002
1100000000	-1.911493e+000	1.137711e+002
1105000000	-1.844992e+000	1.122485e+002
1110000000	-1.788391e+000	1.106313e+002
1115000000	-1.712517e+000	1.093465e+002
1120000000	-1.660036e+000	1.080282e+002
1125000000	-1.599895e+000	1.067448e+002
1130000000	-1.560008e+000	1.054950e+002
1135000000	-1.544912e+000	1.043088e+002
1140000000	-1.500724e+000	1.029581e+002
1145000000	-1.474389e+000	1.019726e+002
1150000000	-1.408363e+000	1.009211e+002
1155000000	-1.387603e+000	9.991947e+001
1160000000	-1.355898e+000	9.910473e+001
1165000000	-1.314325e+000	9.811821e+001
1170000000	-1.266085e+000	9.704585e+001
1175000000	-1.251151e+000	9.599165e+001
1180000000	-1.213507e+000	9.504748e+001
1185000000	-1.190444e+000	9.428603e+001
1190000000	-1.186591e+000	9.337488e+001
1195000000	-1.146077e+000	9.238425e+001
1200000000	-1.128867e+000	9.150833e+001
1205000000	-1.098282e+000	9.060825e+001
1210000000	-1.065167e+000	8.978985e+001
1215000000	-1.048324e+000	8.895630e+001
1220000000	-1.034631e+000	8.810116e+001
1225000000	-1.028055e+000	8.733735e+001
1230000000	-1.003825e+000	8.643245e+001
1235000000	-9.958332e-001	8.570102e+001
1240000000	-9.570110e-001	8.505236e+001
1245000000	-9.793020e-001	8.419463e+001
1250000000	-9.740961e-001	8.359241e+001
1255000000	-9.763755e-001	8.291364e+001
1260000000	-9.678653e-001	8.238110e+001
1265000000	-9.714004e-001	8.166494e+001
1270000000	-9.589089e-001	8.104572e+001
1275000000	-9.530144e-001	8.048301e+001
1280000000	-9.409789e-001	7.987319e+001
1285000000	-9.344726e-001	7.936496e+001
1290000000	-9.338459e-001	7.861771e+001
1295000000	-9.265885e-001	7.792879e+001
1300000000	-9.460416e-001	7.725726e+001
1305000000	-9.274333e-001	7.673476e+001
1310000000	-9.308184e-001	7.606770e+001
1315000000	-9.209657e-001	7.555637e+001
1320000000	-9.184585e-001	7.496937e+001
1325000000	-9.170783e-001	7.444172e+001
1330000000	-9.238160e-001	7.388815e+001
1335000000	-9.059518e-001	7.330129e+001
1340000000	-8.975159e-001	7.267109e+001
1345000000	-9.012412e-001	7.207737e+001
1350000000	-9.087621e-001	7.155219e+001
1355000000	-9.088016e-001	7.105385e+001
1360000000	-9.199236e-001	7.048420e+001
1365000000	-9.017501e-001	6.988779e+001
1370000000	-9.220709e-001	6.940741e+001
1375000000	-9.204075e-001	6.885901e+001
1380000000	-9.362708e-001	6.835304e+001
1385000000	-9.158918e-001	6.784848e+001
1390000000	-9.164927e-001	6.714056e+001
1395000000	-9.138488e-001	6.658836e+001
1400000000	-9.425772e-001	6.600950e+001
1405000000	-9.472082e-001	6.545132e+001
1410000000	-9.584192e-001	6.477765e+001
1415000000	-9.499939e-001	6.414935e+001
1420000000	-9.879885e-001	6.352044e+001
1425000000	-9.900462e-001	6.287033e+001
1430000000	-1.002341e+000	6.225183e+001
1435000000	-1.002026e+000	6.168613e+001
1440000000	-1.045181e+000	6.092290e+001
1445000000	-1.048989e+000	6.033343e+001
1450000000	-1.064307e+000	5.959774e+001
1455000000	-1.081318e+000	5.906963e+001
1460000000	-1.108876e+000	5.829628e+001
1465000000	-1.135062e+000	5.773775e+001
1470000000	-1.155999e+000	5.712473e+001
1475000000	-1.191339e+000	5.629917e+001
1480000000	-1.219203e+000	5.574642e+001
1485000000	-1.253907e+000	5.512515e+001
1490000000	-1.277508e+000	5.437841e+001
1495000000	-1.307454e+000	5.374895e+001
1500000000	-1.322381e+000	5.312110e+001
1505000000	-1.359971e+000	5.228433e+001
1510000000	-1.414272e+000	5.156882e+001
1515000000	-1.447229e+000	5.084217e+001
1520000000	-1.485480e+000	5.016214e+001
1525000000	-1.541776e+000	4.939220e+001
1530000000	-1.566474e+000	4.863333e+001
1535000000	-1.643172e+000	4.782747e+001
1540000000	-1.690687e+000	4.702969e+001
1545000000	-1.716698e+000	4.632938e+001
1550000000	-1.770763e+000	4.556392e+001
1555000000	-1.800041e+000	4.459918e+001
1560000000	-1.864277e+000	4.365538e+001
1565000000	-1.923129e+000	4.276189e+001
1570000000	-1.989891e+000	4.184353e+001
1575000000	-2.030964e+000	4.104194e+001
1580000000	-2.113973e+000	4.009199e+001
1585000000	-2.180819e+000	3.928041e+001
1590000000	-2.248199e+000	3.831871e+001
1595000000	-2.338291e+000	3.743324e+001
1600000000	-2.420696e+000	3.636415e+001
1605000000	-2.488928e+000	3.553817e+001
1610000000	-2.566373e+000	3.451781e+001
1615000000	-2.669898e+000	3.344262e+001
1620000000	-2.785728e+000	3.242033e+001
1625000000	-2.918025e+000	3.132492e+001
1630000000	-3.021127e+000	3.016341e+001
1635000000	-3.143565e+000	2.916649e+001
1640000000	-3.290468e+000	2.815357e+001
1645000000	-3.448556e+000	2.714887e+001
1650000000	-3.579794e+000	2.626995e+001
1655000000	-3.687267e+000	2.511746e+001
1660000000	-3.843482e+000	2.398560e+001
1665000000	-3.990371e+000	2.304397e+001
1670000000	-4.126331e+000	2.178215e+001
1675000000	-4.292024e+000	2.039470e+001
1680000000	-4.468421e+000	1.921400e+001
1685000000	-4.684495e+000	1.787126e+001
1690000000	-4.886957e+000	1.715598e+001
1695000000	-5.093723e+000	1.618983e+001
1700000000	-5.251880e+000	1.541140e+001
1705000000	-5.403282e+000	1.410235e+001
1710000000	-5.572989e+000	1.275884e+001
1715000000	-5.805324e+000	1.129471e+001
1720000000	-6.054527e+000	1.010397e+001
1725000000	-6.275569e+000	8.712341e+000
1730000000	-6.548810e+000	7.651090e+000
1735000000	-6.845653e+000	6.442369e+000
1740000000	-7.146132e+000	5.318705e+000
1745000000	-7.396557e+000	4.246739e+000
1750000000	-7.665604e+000	2.947391e+000
1755000000	-7.919421e+000	1.310040e+000
1760000000	-8.263425e+000	-6.099904e-001
1765000000	-8.631500e+000	-2.392407e+000
1770000000	-9.073514e+000	-4.064811e+000
1775000000	-9.529623e+000	-5.604369e+000
1780000000	-9.994793e+000	-6.751692e+000
1785000000	-1.043653e+001	-8.054379e+000
1790000000	-1.090432e+001	-9.366983e+000
1795000000	-1.143966e+001	-1.089610e+001
1800000000	-1.197864e+001	-1.208192e+001
1805000000	-1.256026e+001	-1.339086e+001
1810000000	-1.315686e+001	-1.476055e+001
1815000000	-1.381726e+001	-1.643298e+001
1820000000	-1.465089e+001	-1.813698e+001
1825000000	-1.570356e+001	-1.903858e+001
1830000000	-1.675537e+001	-1.792008e+001
1835000000	-1.746557e+001	-1.518736e+001
1840000000	-1.806077e+001	-1.423518e+001
1845000000	-1.865672e+001	-1.449407e+001
1850000000	-1.946926e+001	-1.651079e+001
1855000000	-2.051614e+001	-1.795901e+001
1860000000	-2.188796e+001	-1.964445e+001
1865000000	-2.347144e+001	-2.125726e+001
1870000000	-2.549808e+001	-2.235979e+001
1875000000	-2.787435e+001	-2.391134e+001
1880000000	-3.158243e+001	-2.446359e+001
1885000000	-3.854650e+001	-1.510186e+001
1890000000	-4.466922e+001	5.208421e+001
1895000000	-3.891453e+001	1.154764e+002
1900000000	-3.409581e+001	1.287958e+002
1905000000	-3.083042e+001	1.336436e+002
1910000000	-2.853059e+001	1.381935e+002
1915000000	-2.633300e+001	1.400070e+002
1920000000	-2.494764e+001	1.404349e+002
1925000000	-2.342548e+001	1.410273e+002
1930000000	-2.221315e+001	1.385508e+002
1935000000	-2.143587e+001	1.381634e+002
1940000000	-2.068905e+001	1.385589e+002
1945000000	-1.970705e+001	1.398852e+002
1950000000	-1.871298e+001	1.385326e+002
1955000000	-1.814058e+001	1.358520e+002
1960000000	-1.774088e+001	1.349174e+002
1965000000	-1.724080e+001	1.341375e+002
1970000000	-1.686474e+001	1.331703e+002
1975000000	-1.657250e+001	1.320082e+002
1980000000	-1.642586e+001	1.326638e+002
1985000000	-1.614859e+001	1.329056e+002
1990000000	-1.585395e+001	1.343782e+002
1995000000	-1.533131e+001	1.355926e+002
2000000000	-1.474493e+001	1.359576e+002
2005000000	-1.419393e+001	1.341732e+002
2010000000	-1.395619e+001	1.318828e+002
2015000000	-1.390257e+001	1.308969e+002
2020000000	-1.372366e+001	1.310264e+002
2025000000	-1.345711e+001	1.314809e+002
2030000000	-1.308073e+001	1.310970e+002
2035000000	-1.281438e+001	1.300243e+002
2040000000	-1.260526e+001	1.289512e+002
2045000000	-1.242779e+001	1.277986e+002
2050000000	-1.233980e+001	1.268638e+002
2055000000	-1.219013e+001	1.264344e+002
2060000000	-1.197889e+001	1.257495e+002
2065000000	-1.182051e+001	1.247915e+002
2070000000	-1.177671e+001	1.243895e+002
2075000000	-1.163357e+001	1.239633e+002
2080000000	-1.147757e+001	1.233321e+002
2085000000	-1.133964e+001	1.225293e+002
2090000000	-1.128450e+001	1.216938e+002
2095000000	-1.130871e+001	1.214140e+002
2100000000	-1.125550e+001	1.217158e+002
2105000000	-1.117532e+001	1.218784e+002
2110000000	-1.105569e+001	1.223133e+002
2115000000	-1.085873e+001	1.226320e+002
2120000000	-1.059241e+001	1.223547e+002
2125000000	-1.034675e+001	1.215510e+002
2130000000	-1.023029e+001	1.203096e+002
2135000000	-1.021569e+001	1.192531e+002
2140000000	-1.015939e+001	1.188806e+002
2145000000	-1.010325e+001	1.182731e+002
2150000000	-1.000498e+001	1.176896e+002
2155000000	-9.957968e+000	1.168369e+002
2160000000	-9.935454e+000	1.163198e+002
2165000000	-9.935770e+000	1.162236e+002
2170000000	-9.800776e+000	1.159582e+002
2175000000	-9.698271e+000	1.150808e+002
2180000000	-9.618133e+000	1.144864e+002
2185000000	-9.544213e+000	1.136041e+002
2190000000	-9.555591e+000	1.131342e+002
2195000000	-9.529561e+000	1.128144e+002
2200000000	-9.451542e+000	1.123055e+002
2205000000	-9.390627e+000	1.119302e+002
2210000000	-9.299862e+000	1.116839e+002
2215000000	-9.184348e+000	1.109782e+002
2220000000	-9.136936e+000	1.102940e+002
2225000000	-9.069652e+000	1.092136e+002
2230000000	-9.071083e+000	1.082142e+002
2235000000	-9.109604e+000	1.078613e+002
2240000000	-9.074133e+000	1.073637e+002
2245000000	-9.010901e+000	1.067612e+002
2250000000	-8.982308e+000	1.059297e+002
2255000000	-8.960132e+000	1.049870e+002
2260000000	-9.007656e+000	1.040514e+002
2265000000	-8.985640e+000	1.031065e+002
2270000000	-9.025042e+000	1.018957e+002
2275000000	-9.121037e+000	1.008140e+002
2280000000	-9.273593e+000	1.004113e+002
2285000000	-9.357870e+000	1.001492e+002
2290000000	-9.404032e+000	1.000041e+002
2295000000	-9.429017e+000	9.996143e+001
2300000000	-9.412244e+000	9.945138e+001
2305000000	-9.433374e+000	9.920701e+001
2310000000	-9.371342e+000	9.898370e+001
2315000000	-9.322414e+000	9.824841e+001
2320000000	-9.282177e+000	9.699731e+001
2325000000	-9.390503e+000	9.550767e+001
2330000000	-9.473519e+000	9.522893e+001
2335000000	-9.446654e+000	9.469332e+001
2340000000	-9.485073e+000	9.330307e+001
2345000000	-9.595726e+000	9.248222e+001
2350000000	-9.663803e+000	9.209040e+001
2355000000	-9.707610e+000	9.126692e+001
2360000000	-9.765570e+000	9.009626e+001
2365000000	-9.825690e+000	8.914027e+001
2370000000	-9.924645e+000	8.797992e+001
2375000000	-1.003474e+001	8.691932e+001
2380000000	-1.014210e+001	8.565987e+001
2385000000	-1.028641e+001	8.441341e+001
2390000000	-1.046095e+001	8.328048e+001
2395000000	-1.061338e+001	8.227030e+001
2400000000	-1.075382e+001	8.110316e+001
2405000000	-1.099530e+001	8.002133e+001
2410000000	-1.113547e+001	7.914184e+001
2415000000	-1.133383e+001	7.795444e+001
2420000000	-1.148500e+001	7.715847e+001
2425000000	-1.161184e+001	7.568917e+001
2430000000	-1.182947e+001	7.438910e+001
2435000000	-1.199510e+001	7.279049e+001
2440000000	-1.224615e+001	7.080864e+001
2445000000	-1.257404e+001	6.922210e+001
2450000000	-1.282736e+001	6.738085e+001
2455000000	-1.320763e+001	6.535720e+001
2460000000	-1.362874e+001	6.379090e+001
2465000000	-1.402782e+001	6.223850e+001
2470000000	-1.448300e+001	6.044269e+001
2475000000	-1.495744e+001	5.910251e+001
2480000000	-1.530480e+001	5.757637e+001
2485000000	-1.574298e+001	5.476416e+001
2490000000	-1.632241e+001	5.240686e+001
2495000000	-1.687393e+001	4.964941e+001
2500000000	-1.749211e+001	4.692025e+001
2505000000	-1.813933e+001	4.450033e+001
2510000000	-1.880655e+001	4.168677e+001
2515000000	-1.925882e+001	3.900422e+001
2520000000	-1.976077e+001	3.403497e+001
2525000000	-2.048281e+001	2.798599e+001
2530000000	-2.102255e+001	2.197021e+001
2535000000	-2.165048e+001	1.365993e+001
2540000000	-2.220360e+001	5.340853e+000
2545000000	-2.255464e+001	-2.893376e+000
2550000000	-2.226700e+001	-1.232962e+001
2555000000	-2.199152e+001	-2.487302e+001
2560000000	-2.159806e+001	-3.609439e+001
2565000000	-2.094571e+001	-4.668267e+001
2570000000	-2.024858e+001	-5.738068e+001
2575000000	-1.970521e+001	-6.566358e+001
2580000000	-1.905887e+001	-7.289459e+001
2585000000	-1.842888e+001	-7.819300e+001
2590000000	-1.758284e+001	-8.301301e+001
2595000000	-1.691164e+001	-8.762205e+001
2600000000	-1.625710e+001	-9.134784e+001
2605000000	-1.558936e+001	-9.497713e+001
2610000000	-1.505910e+001	-9.793038e+001
2615000000	-1.445610e+001	-9.968363e+001
2620000000	-1.373978e+001	-1.024742e+002
2625000000	-1.318981e+001	-1.047032e+002
2630000000	-1.267343e+001	-1.070569e+002
2635000000	-1.221060e+001	-1.091418e+002
2640000000	-1.175463e+001	-1.109117e+002
2645000000	-1.128425e+001	-1.125032e+002
2650000000	-1.082897e+001	-1.142485e+002
2655000000	-1.040712e+001	-1.158553e+002
2660000000	-1.006598e+001	-1.174742e+002
2665000000	-9.683374e+000	-1.187011e+002
2670000000	-9.301811e+000	-1.200411e+002
2675000000	-8.962337e+000	-1.213681e+002
2680000000	-8.593380e+000	-1.229971e+002
2685000000	-8.289265e+000	-1.243068e+002
2690000000	-7.988972e+000	-1.259096e+002
2695000000	-7.756569e+000	-1.273220e+002
2700000000	-7.543864e+000	-1.285454e+002
2705000000	-7.293672e+000	-1.291102e+002
2710000000	-7.038303e+000	-1.300180e+002
2715000000	-6.770131e+000	-1.311367e+002
2720000000	-6.545321e+000	-1.320953e+002
2725000000	-6.345977e+000	-1.329747e+002
2730000000	-6.094363e+000	-1.336238e+002
2735000000	-5.842442e+000	-1.345797e+002
2740000000	-5.583446e+000	-1.355713e+002
2745000000	-5.401204e+000	-1.365342e+002
2750000000	-5.181469e+000	-1.374922e+002
2755000000	-4.990413e+000	-1.383974e+002
2760000000	-4.808385e+000	-1.394619e+002
2765000000	-4.622005e+000	-1.406413e+002
2770000000	-4.480366e+000	-1.415017e+002
2775000000	-4.354083e+000	-1.423575e+002
2780000000	-4.221223e+000	-1.432170e+002
2785000000	-4.084159e+000	-1.439776e+002
2790000000	-3.945085e+000	-1.448653e+002
2795000000	-3.810736e+000	-1.453833e+002
2800000000	-3.670952e+000	-1.461922e+002
2805000000	-3.570234e+000	-1.468760e+002
2810000000	-3.464714e+000	-1.475915e+002
2815000000	-3.341670e+000	-1.482220e+002
2820000000	-3.237468e+000	-1.489283e+002
2825000000	-3.123420e+000	-1.495519e+002
2830000000	-3.010208e+000	-1.501219e+002
2835000000	-2.943510e+000	-1.507709e+002
2840000000	-2.856790e+000	-1.513371e+002
2845000000	-2.787647e+000	-1.518029e+002
2850000000	-2.678427e+000	-1.522417e+002
2855000000	-2.579315e+000	-1.527834e+002
2860000000	-2.496298e+000	-1.533285e+002
2865000000	-2.412521e+000	-1.538301e+002
2870000000	-2.342034e+000	-1.543497e+002
2875000000	-2.264946e+000	-1.548086e+002
2880000000	-2.183364e+000	-1.552503e+002
2885000000	-2.111479e+000	-1.556621e+002
2890000000	-2.058654e+000	-1.558911e+002
2895000000	-1.974170e+000	-1.564650e+002
2900000000	-1.911020e+000	-1.568935e+002
2905000000	-1.849388e+000	-1.574617e+002
2910000000	-1.780760e+000	-1.577389e+002
2915000000	-1.747555e+000	-1.580914e+002
2920000000	-1.690920e+000	-1.583503e+002
2925000000	-1.651113e+000	-1.587353e+002
2930000000	-1.593526e+000	-1.589798e+002
2935000000	-1.530146e+000	-1.593826e+002
2940000000	-1.483148e+000	-1.597329e+002
2945000000	-1.428654e+000	-1.599970e+002
2950000000	-1.380702e+000	-1.602930e+002
2955000000	-1.337445e+000	-1.604759e+002
2960000000	-1.286017e+000	-1.608748e+002
2965000000	-1.234738e+000	-1.611729e+002
