! 1575AT54A0010
! dc to 5GHz
!Date: Wednesday, September 08, 2010 13:53:27
!Correction: S11(Full 1 Port(1)) 
!S1P File: Measurement: S11:
# Hz S  MA   R 50
300000  9.959928e-001  7.817723e-002 
25298500  9.974363e-001  -2.523694e+000 
50297000  9.949657e-001  -4.970037e+000 
75295500  9.929717e-001  -7.434644e+000 
100294000  9.926676e-001  -9.864919e+000 
125292500  9.918845e-001  -1.224000e+001 
150291000  9.931778e-001  -1.461962e+001 
175289500  9.928528e-001  -1.685501e+001 
200288000  9.932840e-001  -1.919342e+001 
225286500  9.939229e-001  -2.153299e+001 
250285000  9.932727e-001  -2.396174e+001 
275283500  9.918686e-001  -2.619766e+001 
300282000  9.915053e-001  -2.841365e+001 
325280500  9.899051e-001  -3.075662e+001 
350279000  9.900805e-001  -3.298641e+001 
375277500  9.892069e-001  -3.520739e+001 
400276000  9.890859e-001  -3.757771e+001 
425274500  9.893203e-001  -3.985699e+001 
450273000  9.866402e-001  -4.218870e+001 
475271500  9.852304e-001  -4.449464e+001 
500270000  9.836934e-001  -4.677208e+001 
525268500  9.825290e-001  -4.894236e+001 
550267000  9.838718e-001  -5.107291e+001 
575265500  9.822509e-001  -5.329006e+001 
600264000  9.823830e-001  -5.540695e+001 
625262500  9.816496e-001  -5.763795e+001 
650261000  9.816855e-001  -5.983109e+001 
675259500  9.825501e-001  -6.204025e+001 
700258000  9.825299e-001  -6.423945e+001 
725256500  9.831117e-001  -6.646626e+001 
750255000  9.761007e-001  -6.847308e+001 
775253500  9.911024e-001  -7.116455e+001 
800252000  9.819432e-001  -7.290193e+001 
825250500  9.816929e-001  -7.503765e+001 
850249000  9.823074e-001  -7.729272e+001 
875247500  9.791750e-001  -7.961147e+001 
900246000  9.804750e-001  -8.179391e+001 
925244500  9.805478e-001  -8.400404e+001 
950243000  9.799185e-001  -8.613121e+001 
975241500  9.788025e-001  -8.842503e+001 
1000240000  9.785738e-001  -9.067583e+001 
1025238500  9.783427e-001  -9.298500e+001 
1050237000  9.779931e-001  -9.519560e+001 
1075235500  9.773208e-001  -9.758064e+001 
1100234000  9.789173e-001  -9.992161e+001 
1125232500  9.785283e-001  -1.022679e+002 
1150231000  9.775522e-001  -1.047965e+002 
1175229500  9.783791e-001  -1.072879e+002 
1200228000  9.777712e-001  -1.098315e+002 
1225226500  9.758089e-001  -1.124957e+002 
1250225000  9.766688e-001  -1.152054e+002 
1275223500  9.754186e-001  -1.179580e+002 
1300222000  9.743340e-001  -1.208425e+002 
1325220500  9.734358e-001  -1.238680e+002 
1350219000  9.749408e-001  -1.271227e+002 
1375217500  9.718755e-001  -1.306538e+002 
1400216000  9.669546e-001  -1.347063e+002 
1425214500  9.633547e-001  -1.391343e+002 
1450213000  9.536339e-001  -1.443377e+002 
1475211500  9.410155e-001  -1.510589e+002 
1500210000  9.206799e-001  -1.605086e+002 
1525208500  8.375978e-001  -1.748938e+002 
1550207000  6.104802e-001  1.576475e+002 
1575205500  1.099479e-001  5.656615e+001 
1600204000  4.980583e-001  -7.869745e+001 
1625202500  7.191255e-001  -1.038958e+002 
1650201000  8.124235e-001  -1.166835e+002 
1675199500  8.633227e-001  -1.257683e+002 
1700198000  8.896980e-001  -1.326579e+002 
1725196500  9.063001e-001  -1.381629e+002 
1750195000  9.178368e-001  -1.430325e+002 
1775193500  9.244541e-001  -1.472332e+002 
1800192000  9.294793e-001  -1.512164e+002 
1825190500  9.313353e-001  -1.549150e+002 
1850189000  9.321121e-001  -1.585051e+002 
1875187500  9.331129e-001  -1.619538e+002 
1900186000  9.351497e-001  -1.653477e+002 
1925184500  9.366623e-001  -1.686284e+002 
1950183000  9.366886e-001  -1.718439e+002 
1975181500  9.349993e-001  -1.750288e+002 
2000180000  9.374435e-001  -1.782346e+002 
2025178500  9.364573e-001  1.786375e+002 
2050177000  9.358047e-001  1.754818e+002 
2075175500  9.338884e-001  1.724037e+002 
2100174000  9.353617e-001  1.692393e+002 
2125172500  9.328647e-001  1.660702e+002 
2150171000  9.333914e-001  1.630836e+002 
2175169500  9.347344e-001  1.600163e+002 
2200168000  9.336113e-001  1.570371e+002 
2225166500  9.324712e-001  1.540353e+002 
2250165000  9.313436e-001  1.510891e+002 
2275163500  9.308568e-001  1.480550e+002 
2300162000  9.280007e-001  1.452049e+002 
2325160500  9.263090e-001  1.423897e+002 
2350159000  9.256108e-001  1.394435e+002 
2375157500  9.232124e-001  1.366917e+002 
2400156000  9.239017e-001  1.339511e+002 
2425154500  9.260394e-001  1.311443e+002 
2450153000  9.258448e-001  1.282648e+002 
2475151500  9.236456e-001  1.255475e+002 
2500150000  9.246501e-001  1.228219e+002 
2525148500  9.253911e-001  1.201531e+002 
2550147000  9.233258e-001  1.175067e+002 
2575145500  9.238071e-001  1.149435e+002 
2600144000  9.231275e-001  1.124253e+002 
2625142500  9.211862e-001  1.096531e+002 
2650141000  9.192390e-001  1.071082e+002 
2675139500  9.194770e-001  1.045269e+002 
2700138000  9.209673e-001  1.019894e+002 
2725136500  9.185431e-001  9.938175e+001 
2750135000  9.184906e-001  9.678435e+001 
2775133500  9.178379e-001  9.432990e+001 
2800132000  9.176764e-001  9.193365e+001 
2825130500  9.172238e-001  8.948569e+001 
2850129000  9.175269e-001  8.720066e+001 
2875127500  9.152932e-001  8.474843e+001 
2900126000  9.153429e-001  8.239201e+001 
2925124500  9.162419e-001  7.983341e+001 
2950123000  9.139900e-001  7.737287e+001 
2975121500  9.115289e-001  7.505464e+001 
3000120000  9.123853e-001  7.265724e+001 
3025118500  9.132358e-001  7.022729e+001 
3050117000  9.124923e-001  6.784196e+001 
3075115500  9.098253e-001  6.544566e+001 
3100114000  9.092234e-001  6.294116e+001 
3125112500  9.134902e-001  6.030138e+001 
3150111000  9.064450e-001  5.784999e+001 
3175109500  9.046904e-001  5.532935e+001 
3200108000  9.024128e-001  5.280219e+001 
3225106500  9.024685e-001  5.043794e+001 
3250105000  8.994799e-001  4.764020e+001 
3275103500  8.979459e-001  4.496170e+001 
3300102000  8.944352e-001  4.210924e+001 
3325100500  8.925925e-001  3.944149e+001 
3350099000  8.888415e-001  3.657238e+001 
3375097500  8.886451e-001  3.363838e+001 
3400096000  8.856905e-001  3.057624e+001 
3425094500  8.824332e-001  2.752314e+001 
3450093000  8.820537e-001  2.430445e+001 
3475091500  8.785502e-001  2.107130e+001 
3500090000  8.745615e-001  1.789201e+001 
3525088500  8.704752e-001  1.440640e+001 
3550087000  8.655630e-001  1.079875e+001 
3575085500  8.625630e-001  7.125068e+000 
3600084000  8.596094e-001  3.390316e+000 
3625082500  8.562096e-001  -7.252513e-001 
3650081000  8.534762e-001  -4.837782e+000 
3675079500  8.480186e-001  -9.051368e+000 
3700078000  8.466684e-001  -1.344614e+001 
3725076500  8.419076e-001  -1.771814e+001 
3750075000  8.385022e-001  -2.248069e+001 
3775073500  8.310946e-001  -2.732328e+001 
3800072000  8.268426e-001  -3.226047e+001 
3825070500  8.224334e-001  -3.748193e+001 
3850069000  8.167024e-001  -4.271880e+001 
3875067500  8.130184e-001  -4.819226e+001 
3900066000  8.092519e-001  -5.360457e+001 
3925064500  8.073837e-001  -5.914317e+001 
3950063000  8.061849e-001  -6.478512e+001 
3975061500  8.039884e-001  -7.042628e+001 
4000060000  8.047753e-001  -7.629620e+001 
4025058500  8.021851e-001  -8.202190e+001 
4050057000  8.006412e-001  -8.802847e+001 
4075055500  7.985642e-001  -9.387094e+001 
4100054000  7.988955e-001  -9.955563e+001 
4125052500  7.990656e-001  -1.053154e+002 
4150051000  8.002216e-001  -1.108507e+002 
4175049500  8.039808e-001  -1.163756e+002 
4200048000  8.032838e-001  -1.218062e+002 
4225046500  8.043202e-001  -1.269916e+002 
4250045000  8.054504e-001  -1.322821e+002 
4275043500  8.100454e-001  -1.372986e+002 
4300042000  8.119705e-001  -1.423257e+002 
4325040500  8.149428e-001  -1.472048e+002 
4350039000  8.182094e-001  -1.518784e+002 
4375037500  8.147476e-001  -1.564498e+002 
4400036000  8.152621e-001  -1.607047e+002 
4425034500  8.163343e-001  -1.651181e+002 
4450033000  8.192784e-001  -1.692217e+002 
4475031500  8.188414e-001  -1.731808e+002 
4500030000  8.196681e-001  -1.769659e+002 
4525028500  8.236189e-001  1.791178e+002 
4550027000  8.219411e-001  1.753350e+002 
4575025500  8.234388e-001  1.718298e+002 
4600024000  8.235819e-001  1.682829e+002 
4625022500  8.222710e-001  1.649133e+002 
4650021000  8.234917e-001  1.613313e+002 
4675019500  8.210168e-001  1.579008e+002 
4700018000  8.176727e-001  1.545309e+002 
4725016500  8.176321e-001  1.513785e+002 
4750015000  8.168352e-001  1.481690e+002 
4775013500  8.133970e-001  1.449102e+002 
4800012000  8.109555e-001  1.414595e+002 
4825010500  8.072647e-001  1.381342e+002 
4850009000  8.033260e-001  1.348237e+002 
4875007500  8.008276e-001  1.314797e+002 
4900006000  7.959152e-001  1.281181e+002 
4925004500  7.920633e-001  1.248865e+002 
4950003000  7.859692e-001  1.214944e+002 
4975001500  7.803748e-001  1.181083e+002 
5000000000  7.769607e-001  1.145980e+002 
