! ATR250-TR10HAA
! with matching circuit(22nH and 2.7pF in shunt), measured from dc to 550MHz
!Date: Monday, February 22, 2010 08:29:26
!Correction: S11(Full 2 Port(1,2)) 
!S1P File: Measurement: S11:
# Hz S  dB   R 50
300000  -8.772769e-002  1.610037e-001 
643562.5  -6.572227e-001  1.126034e+000 
987125  -7.840789e-001  1.617908e+000 
1330687.5  -8.401117e-001  1.811337e+000 
1674250  -8.505554e-001  1.759634e+000 
2017812.5  -8.683107e-001  1.841239e+000 
2361375  -8.791730e-001  1.653034e+000 
2704937.5  -8.746658e-001  1.502086e+000 
3048500  -8.590448e-001  1.346529e+000 
3392062.5  -8.459226e-001  1.137111e+000 
3735625  -8.424450e-001  9.282932e-001 
4079187.5  -8.193735e-001  7.089586e-001 
4422750  -8.145928e-001  4.517870e-001 
4766312.5  -8.044663e-001  3.492224e-001 
5109875  -7.857948e-001  5.113561e-002 
5453437.5  -7.706727e-001  -1.765149e-001 
5797000  -7.543573e-001  -3.182251e-001 
6140562.5  -7.364147e-001  -5.554389e-001 
6484125  -7.311785e-001  -7.907597e-001 
6827687.5  -7.174272e-001  -9.599774e-001 
7171250  -7.016013e-001  -1.164999e+000 
7514812.5  -6.895531e-001  -1.332503e+000 
7858375  -6.728784e-001  -1.416237e+000 
8201937.5  -6.615567e-001  -1.589957e+000 
8545500  -6.463235e-001  -1.719430e+000 
8889062.5  -6.322948e-001  -1.840863e+000 
9232625  -6.253102e-001  -1.973022e+000 
9576187.5  -6.118212e-001  -2.085437e+000 
9919750  -5.660971e-002  -2.949256e+000 
10263312.5  -2.538721e-002  -3.164069e+000 
10606875  -2.457986e-002  -3.220195e+000 
10950437.5  -2.723633e-002  -3.291806e+000 
11294000  -3.036681e-002  -3.402930e+000 
11637562.5  -2.854309e-002  -3.496681e+000 
11981125  -3.409016e-002  -3.605398e+000 
12324687.5  -3.458833e-002  -3.678936e+000 
12668250  -3.387495e-002  -3.765580e+000 
13011812.5  -2.621111e-002  -4.023646e+000 
13355375  -2.655942e-002  -4.104506e+000 
13698937.5  -3.017325e-002  -4.161013e+000 
14042500  -2.939435e-002  -4.248288e+000 
14386062.5  -2.968720e-002  -4.354506e+000 
14729625  -3.374716e-002  -4.438944e+000 
15073187.5  -3.635461e-002  -4.531124e+000 
15416750  -4.130717e-002  -4.620132e+000 
15760312.5  -3.437160e-002  -4.696831e+000 
16103875  -4.077147e-002  -4.799507e+000 
16447437.5  -4.083945e-002  -4.897374e+000 
16791000  -4.406370e-002  -4.983314e+000 
17134562.5  -5.119907e-002  -5.054735e+000 
17478125  -4.874040e-002  -5.184640e+000 
17821687.5  -5.147521e-002  -5.267781e+000 
18165250  -5.205888e-002  -5.344389e+000 
18508812.5  -5.203623e-002  -5.423491e+000 
18852375  -5.453621e-002  -5.545996e+000 
19195937.5  -5.919517e-002  -5.630232e+000 
19539500  -5.715384e-002  -5.716496e+000 
19883062.5  -5.885693e-002  -5.825525e+000 
20226625  -5.782938e-002  -5.939618e+000 
20570187.5  -5.393430e-002  -6.063432e+000 
20913750  -5.238886e-002  -6.155158e+000 
21257312.5  -5.048513e-002  -6.249217e+000 
21600875  -5.253009e-002  -6.367499e+000 
21944437.5  -5.275509e-002  -6.471208e+000 
22288000  -5.627799e-002  -6.570695e+000 
22631562.5  -5.712520e-002  -6.655170e+000 
22975125  -5.721682e-002  -6.764745e+000 
23318687.5  -5.604579e-002  -6.857015e+000 
23662250  -5.332644e-002  -6.979006e+000 
24005812.5  -5.354704e-002  -7.070509e+000 
24349375  -5.968601e-002  -7.199984e+000 
24692937.5  -5.687238e-002  -7.291823e+000 
25036500  -5.699471e-002  -7.396037e+000 
25380062.5  -5.684857e-002  -7.484359e+000 
25723625  -5.502209e-002  -7.586057e+000 
26067187.5  -5.966404e-002  -7.648286e+000 
26410750  -5.976302e-002  -7.773476e+000 
26754312.5  -5.629003e-002  -7.876592e+000 
27097875  -5.837564e-002  -7.984090e+000 
27441437.5  -5.373533e-002  -8.106217e+000 
27785000  -5.606159e-002  -8.150355e+000 
28128562.5  -5.874871e-002  -8.276659e+000 
28472125  -5.797082e-002  -8.376202e+000 
28815687.5  -5.884872e-002  -8.440526e+000 
29159250  -6.033696e-002  -8.576219e+000 
29502812.5  -5.914651e-002  -8.676355e+000 
29846375  -6.410068e-002  -8.787539e+000 
30189937.5  -6.488527e-002  -8.886765e+000 
30533500  -6.396975e-002  -8.985221e+000 
30877062.5  -6.283053e-002  -9.113721e+000 
31220625  -6.078139e-002  -9.203333e+000 
31564187.5  -6.072137e-002  -9.302394e+000 
31907750  -6.011515e-002  -9.386296e+000 
32251312.5  -5.907977e-002  -9.480148e+000 
32594875  -6.367002e-002  -9.605906e+000 
32938437.5  -6.634896e-002  -9.672966e+000 
33282000  -6.394737e-002  -9.788594e+000 
33625562.5  -6.666829e-002  -9.870494e+000 
33969125  -6.441630e-002  -9.997854e+000 
34312687.5  -6.627723e-002  -1.008766e+001 
34656250  -6.207426e-002  -1.017070e+001 
34999812.5  -6.969973e-002  -1.029374e+001 
35343375  -6.735889e-002  -1.039375e+001 
35686937.5  -7.180046e-002  -1.049309e+001 
36030500  -6.632379e-002  -1.057666e+001 
36374062.5  -6.537923e-002  -1.069402e+001 
36717625  -7.052164e-002  -1.082111e+001 
37061187.5  -6.205299e-002  -1.090176e+001 
37404750  -6.614704e-002  -1.102063e+001 
37748312.5  -6.378320e-002  -1.110120e+001 
38091875  -6.288327e-002  -1.120531e+001 
38435437.5  -6.564745e-002  -1.128166e+001 
38779000  -6.452741e-002  -1.143294e+001 
39122562.5  -6.291198e-002  -1.154418e+001 
39466125  -6.412976e-002  -1.163708e+001 
39809687.5  -6.446064e-002  -1.172366e+001 
40153250  -8.269700e-002  -1.159261e+001 
40496812.5  -7.024217e-002  -1.170817e+001 
40840375  -8.097044e-002  -1.182670e+001 
41183937.5  -7.670517e-002  -1.191900e+001 
41527500  -7.284950e-002  -1.204525e+001 
41871062.5  -7.341445e-002  -1.216361e+001 
42214625  -7.137126e-002  -1.224598e+001 
42558187.5  -7.530357e-002  -1.231508e+001 
42901750  -7.032959e-002  -1.248423e+001 
43245312.5  -7.025181e-002  -1.254901e+001 
43588875  -7.493082e-002  -1.262869e+001 
43932437.5  -7.312506e-002  -1.278851e+001 
44276000  -7.412718e-002  -1.297323e+001 
44619562.5  -7.868663e-002  -1.296291e+001 
44963125  -7.191617e-002  -1.311393e+001 
45306687.5  -7.609058e-002  -1.329001e+001 
45650250  -7.164294e-002  -1.336702e+001 
45993812.5  -7.340819e-002  -1.352515e+001 
46337375  -7.457323e-002  -1.360823e+001 
46680937.5  -7.614773e-002  -1.363162e+001 
47024500  -6.975337e-002  -1.382419e+001 
47368062.5  -7.452236e-002  -1.387932e+001 
47711625  -7.730144e-002  -1.401649e+001 
48055187.5  -6.878684e-002  -1.411779e+001 
48398750  -7.217980e-002  -1.423293e+001 
48742312.5  -7.666065e-002  -1.433833e+001 
49085875  -7.321439e-002  -1.447026e+001 
49429437.5  -7.299975e-002  -1.450722e+001 
49773000  -6.953574e-002  -1.465580e+001 
50116562.5  -6.483684e-002  -1.474946e+001 
50460125  -6.967171e-002  -1.488025e+001 
50803687.5  -7.159020e-002  -1.496021e+001 
51147250  -7.312413e-002  -1.508310e+001 
51490812.5  -6.701817e-002  -1.523894e+001 
51834375  -7.125327e-002  -1.531931e+001 
52177937.5  -7.789354e-002  -1.540606e+001 
52521500  -6.860260e-002  -1.556806e+001 
52865062.5  -7.022177e-002  -1.568227e+001 
53208625  -7.395151e-002  -1.573150e+001 
53552187.5  -7.235302e-002  -1.583869e+001 
53895750  -7.522578e-002  -1.598328e+001 
54239312.5  -7.997829e-002  -1.604104e+001 
54582875  -6.956521e-002  -1.616315e+001 
54926437.5  -7.670370e-002  -1.629573e+001 
55270000  -8.510882e-002  -1.638116e+001 
55613562.5  -7.786960e-002  -1.651959e+001 
55957125  -8.542722e-002  -1.661217e+001 
56300687.5  -8.745724e-002  -1.674681e+001 
56644250  -9.096999e-002  -1.683885e+001 
56987812.5  -8.819118e-002  -1.691475e+001 
57331375  -9.210568e-002  -1.705692e+001 
57674937.5  -9.562179e-002  -1.715590e+001 
58018500  -1.062844e-001  -1.723227e+001 
58362062.5  -9.762987e-002  -1.732467e+001 
58705625  -1.108141e-001  -1.740414e+001 
59049187.5  -1.023715e-001  -1.747699e+001 
59392750  -9.788745e-002  -1.755695e+001 
59736312.5  -1.004788e-001  -1.762359e+001 
60079875  -9.807070e-002  -1.774730e+001 
60423437.5  -9.563842e-002  -1.786839e+001 
60767000  -1.002196e-001  -1.795859e+001 
61110562.5  -1.026994e-001  -1.803622e+001 
61454125  -9.447335e-002  -1.817472e+001 
61797687.5  -1.040853e-001  -1.824551e+001 
62141250  -9.945267e-002  -1.834884e+001 
62484812.5  -1.075535e-001  -1.839178e+001 
62828375  -1.055652e-001  -1.861098e+001 
63171937.5  -1.092418e-001  -1.869945e+001 
63515500  -1.199277e-001  -1.877804e+001 
63859062.5  -1.279317e-001  -1.882866e+001 
64202625  -1.324815e-001  -1.891842e+001 
64546187.5  -1.272178e-001  -1.891288e+001 
64889750  -1.266160e-001  -1.901531e+001 
65233312.5  -1.228411e-001  -1.905014e+001 
65576875  -1.139288e-001  -1.910895e+001 
65920437.5  -1.076490e-001  -1.923295e+001 
66264000  -1.131787e-001  -1.930813e+001 
66607562.5  -1.067297e-001  -1.939737e+001 
66951125  -1.038470e-001  -1.956231e+001 
67294687.5  -1.038931e-001  -1.959647e+001 
67638250  -9.623028e-002  -1.970902e+001 
67981812.5  -9.644307e-002  -1.982761e+001 
68325375  -9.220041e-002  -1.991578e+001 
68668937.5  -8.899459e-002  -2.003203e+001 
69012500  -9.365378e-002  -2.012619e+001 
69356062.5  -8.830924e-002  -2.030945e+001 
69699625  -9.577289e-002  -2.040723e+001 
70043187.5  -9.737623e-002  -2.046049e+001 
70386750  -1.063732e-001  -2.061624e+001 
70730312.5  -9.967246e-002  -2.063138e+001 
71073875  -9.294453e-002  -2.071391e+001 
71417437.5  -9.381024e-002  -2.090995e+001 
71761000  -9.383176e-002  -2.095899e+001 
72104562.5  -9.846009e-002  -2.109893e+001 
72448125  -9.456728e-002  -2.123012e+001 
72791687.5  -9.582697e-002  -2.128472e+001 
73135250  -9.419560e-002  -2.140281e+001 
73478812.5  -8.663628e-002  -2.153660e+001 
73822375  -9.605929e-002  -2.162213e+001 
74165937.5  -9.698298e-002  -2.175241e+001 
74509500  -9.979358e-002  -2.183334e+001 
74853062.5  -1.040570e-001  -2.198407e+001 
75196625  -9.429391e-002  -2.204145e+001 
75540187.5  -9.828111e-002  -2.218326e+001 
75883750  -9.869488e-002  -2.225985e+001 
76227312.5  -9.770269e-002  -2.238906e+001 
76570875  -9.785581e-002  -2.246563e+001 
76914437.5  -1.003627e-001  -2.258206e+001 
77258000  -1.000094e-001  -2.268888e+001 
77601562.5  -1.021296e-001  -2.280631e+001 
77945125  -1.018569e-001  -2.291635e+001 
78288687.5  -1.013833e-001  -2.299531e+001 
78632250  -1.055483e-001  -2.309977e+001 
78975812.5  -9.714711e-002  -2.321628e+001 
79319375  -9.751047e-002  -2.332705e+001 
79662937.5  -9.655217e-002  -2.340295e+001 
80006500  -9.806084e-002  -2.350262e+001 
80350062.5  -1.038390e-001  -2.362514e+001 
80693625  -1.046621e-001  -2.374393e+001 
81037187.5  -1.008502e-001  -2.383501e+001 
81380750  -1.000858e-001  -2.394845e+001 
81724312.5  -1.066851e-001  -2.403322e+001 
82067875  -1.023521e-001  -2.413983e+001 
82411437.5  -1.009924e-001  -2.423819e+001 
82755000  -1.044039e-001  -2.435070e+001 
83098562.5  -1.059368e-001  -2.447371e+001 
83442125  -1.089618e-001  -2.461054e+001 
83785687.5  -1.032545e-001  -2.468122e+001 
84129250  -1.057917e-001  -2.477359e+001 
84472812.5  -1.071687e-001  -2.484429e+001 
84816375  -1.040874e-001  -2.498890e+001 
85159937.5  -1.050570e-001  -2.502743e+001 
85503500  -9.914119e-002  -2.517697e+001 
85847062.5  -1.024562e-001  -2.527284e+001 
86190625  -1.000576e-001  -2.535393e+001 
86534187.5  -1.007679e-001  -2.549603e+001 
86877750  -1.022668e-001  -2.560884e+001 
87221312.5  -1.031334e-001  -2.574392e+001 
87564875  -1.036293e-001  -2.582194e+001 
87908437.5  -1.046157e-001  -2.596048e+001 
88252000  -9.773480e-002  -2.599996e+001 
88595562.5  -1.012033e-001  -2.614435e+001 
88939125  -1.047469e-001  -2.621806e+001 
89282687.5  -1.015467e-001  -2.634941e+001 
89626250  -1.109569e-001  -2.645736e+001 
89969812.5  -1.070245e-001  -2.653222e+001 
90313375  -1.055504e-001  -2.666397e+001 
90656937.5  -1.000763e-001  -2.676905e+001 
91000500  -1.046315e-001  -2.686107e+001 
91344062.5  -1.054811e-001  -2.696951e+001 
91687625  -1.089897e-001  -2.708006e+001 
92031187.5  -1.075732e-001  -2.720771e+001 
92374750  -1.046512e-001  -2.732846e+001 
92718312.5  -1.044734e-001  -2.741045e+001 
93061875  -1.067975e-001  -2.752895e+001 
93405437.5  -1.084236e-001  -2.761075e+001 
93749000  -1.010282e-001  -2.771686e+001 
94092562.5  -1.039519e-001  -2.783277e+001 
94436125  -1.112469e-001  -2.794872e+001 
94779687.5  -1.045758e-001  -2.802266e+001 
95123250  -1.116133e-001  -2.811827e+001 
95466812.5  -1.109973e-001  -2.825300e+001 
95810375  -1.152349e-001  -2.835227e+001 
96153937.5  -1.096164e-001  -2.852154e+001 
96497500  -1.117176e-001  -2.861810e+001 
96841062.5  -1.185698e-001  -2.870145e+001 
97184625  -1.134589e-001  -2.879812e+001 
97528187.5  -1.127606e-001  -2.891676e+001 
97871750  -1.221245e-001  -2.899404e+001 
98215312.5  -1.157758e-001  -2.915001e+001 
98558875  -1.153343e-001  -2.924043e+001 
98902437.5  -1.133263e-001  -2.933768e+001 
99246000  -1.170518e-001  -2.949377e+001 
99589562.5  -1.141995e-001  -2.954676e+001 
99933125  -1.210905e-001  -2.962341e+001 
100276687.5  -1.205424e-001  -2.974430e+001 
100620250  -1.264154e-001  -2.981784e+001 
100963812.5  -1.197664e-001  -2.992745e+001 
101307375  -1.181580e-001  -3.001660e+001 
101650937.5  -1.220560e-001  -3.011531e+001 
101994500  -1.188908e-001  -3.022087e+001 
102338062.5  -1.208210e-001  -3.032984e+001 
102681625  -1.194239e-001  -3.037954e+001 
103025187.5  -1.255116e-001  -3.052026e+001 
103368750  -1.222179e-001  -3.059161e+001 
103712312.5  -1.196945e-001  -3.072942e+001 
104055875  -1.224775e-001  -3.081754e+001 
104399437.5  -1.240669e-001  -3.094447e+001 
104743000  -1.198838e-001  -3.104492e+001 
105086562.5  -1.220979e-001  -3.118017e+001 
105430125  -1.183118e-001  -3.124567e+001 
105773687.5  -1.261158e-001  -3.133854e+001 
106117250  -1.225793e-001  -3.147941e+001 
106460812.5  -1.257998e-001  -3.157452e+001 
106804375  -1.244527e-001  -3.166412e+001 
107147937.5  -1.309037e-001  -3.180295e+001 
107491500  -1.209707e-001  -3.189864e+001 
107835062.5  -1.260962e-001  -3.201320e+001 
108178625  -1.295592e-001  -3.212602e+001 
108522187.5  -1.280425e-001  -3.224024e+001 
108865750  -1.249334e-001  -3.240031e+001 
109209312.5  -1.271106e-001  -3.245617e+001 
109552875  -1.249393e-001  -3.256334e+001 
109896437.5  -1.261279e-001  -3.264198e+001 
110240000  -1.246872e-001  -3.275740e+001 
110583562.5  -1.274314e-001  -3.287708e+001 
110927125  -1.254453e-001  -3.301368e+001 
111270687.5  -1.259362e-001  -3.313762e+001 
111614250  -1.264741e-001  -3.318403e+001 
111957812.5  -1.252891e-001  -3.330664e+001 
112301375  -1.234241e-001  -3.342345e+001 
112644937.5  -1.224385e-001  -3.354047e+001 
112988500  -1.344281e-001  -3.364103e+001 
113332062.5  -1.351463e-001  -3.376430e+001 
113675625  -1.242078e-001  -3.385727e+001 
114019187.5  -1.287778e-001  -3.392550e+001 
114362750  -1.221572e-001  -3.410149e+001 
114706312.5  -1.254649e-001  -3.419380e+001 
115049875  -1.230293e-001  -3.430530e+001 
115393437.5  -1.250739e-001  -3.438617e+001 
115737000  -1.252439e-001  -3.452246e+001 
116080562.5  -1.145211e-001  -3.459126e+001 
116424125  -1.266833e-001  -3.471677e+001 
116767687.5  -1.229641e-001  -3.483575e+001 
117111250  -1.186285e-001  -3.492187e+001 
117454812.5  -1.220735e-001  -3.503503e+001 
117798375  -1.295692e-001  -3.514055e+001 
118141937.5  -1.313645e-001  -3.527268e+001 
118485500  -1.243419e-001  -3.536738e+001 
118829062.5  -1.174810e-001  -3.546150e+001 
119172625  -1.314729e-001  -3.558556e+001 
119516187.5  -1.303221e-001  -3.571391e+001 
119859750  -1.281526e-001  -3.581971e+001 
120203312.5  -1.261777e-001  -3.595850e+001 
120546875  -1.320415e-001  -3.604701e+001 
120890437.5  -1.218531e-001  -3.614047e+001 
121234000  -1.295198e-001  -3.624084e+001 
121577562.5  -1.251427e-001  -3.636762e+001 
121921125  -1.287731e-001  -3.641419e+001 
122264687.5  -1.217095e-001  -3.653593e+001 
122608250  -1.360471e-001  -3.665192e+001 
122951812.5  -1.243369e-001  -3.678901e+001 
123295375  -1.238622e-001  -3.692299e+001 
123638937.5  -1.300122e-001  -3.697104e+001 
123982500  -1.361849e-001  -3.703610e+001 
124326062.5  -1.325155e-001  -3.714854e+001 
124669625  -1.380053e-001  -3.730387e+001 
125013187.5  -1.306129e-001  -3.735400e+001 
125356750  -1.344900e-001  -3.750147e+001 
125700312.5  -1.346710e-001  -3.757191e+001 
126043875  -1.361832e-001  -3.769311e+001 
126387437.5  -1.390538e-001  -3.783270e+001 
126731000  -1.378540e-001  -3.789130e+001 
127074562.5  -1.377674e-001  -3.808455e+001 
127418125  -1.353230e-001  -3.814299e+001 
127761687.5  -1.368913e-001  -3.826960e+001 
128105250  -1.451508e-001  -3.833302e+001 
128448812.5  -1.395788e-001  -3.844050e+001 
128792375  -1.460217e-001  -3.853399e+001 
129135937.5  -1.477416e-001  -3.871593e+001 
129479500  -1.523119e-001  -3.879872e+001 
129823062.5  -1.477890e-001  -3.888441e+001 
130166625  -1.442818e-001  -3.902132e+001 
130510187.5  -1.442878e-001  -3.907467e+001 
130853750  -1.484472e-001  -3.924793e+001 
131197312.5  -1.397233e-001  -3.929858e+001 
131540875  -1.437024e-001  -3.945041e+001 
131884437.5  -1.508180e-001  -3.950819e+001 
132228000  -1.626802e-001  -3.958865e+001 
132571562.5  -1.682730e-001  -3.968666e+001 
132915125  -1.709871e-001  -3.975549e+001 
133258687.5  -1.815020e-001  -3.981763e+001 
133602250  -1.827462e-001  -3.985855e+001 
133945812.5  -1.867049e-001  -3.998796e+001 
134289375  -1.880168e-001  -4.002774e+001 
134632937.5  -1.926829e-001  -4.013375e+001 
134976500  -1.821063e-001  -4.019487e+001 
135320062.5  -1.964899e-001  -4.033886e+001 
135663625  -1.926494e-001  -4.041930e+001 
136007187.5  -1.918200e-001  -4.051274e+001 
136350750  -1.957044e-001  -4.063185e+001 
136694312.5  -1.929088e-001  -4.075766e+001 
137037875  -1.799355e-001  -4.089851e+001 
137381437.5  -1.861139e-001  -4.095064e+001 
137725000  -1.809443e-001  -4.111946e+001 
138068562.5  -1.733382e-001  -4.130526e+001 
138412125  -1.846012e-001  -4.135440e+001 
138755687.5  -1.677621e-001  -4.151307e+001 
139099250  -1.723038e-001  -4.162378e+001 
139442812.5  -1.622023e-001  -4.177276e+001 
139786375  -1.534069e-001  -4.195351e+001 
140129937.5  -1.497321e-001  -4.209223e+001 
140473500  -1.469145e-001  -4.230095e+001 
140817062.5  -1.334722e-001  -4.246512e+001 
141160625  -1.329731e-001  -4.258865e+001 
141504187.5  -1.423209e-001  -4.268344e+001 
141847750  -1.251401e-001  -4.275587e+001 
142191312.5  -1.280547e-001  -4.280782e+001 
142534875  -1.209203e-001  -4.294875e+001 
142878437.5  -1.224926e-001  -4.306099e+001 
143222000  -1.282272e-001  -4.320784e+001 
143565562.5  -1.275903e-001  -4.324110e+001 
143909125  -1.197740e-001  -4.343184e+001 
144252687.5  -1.125523e-001  -4.352121e+001 
144596250  -1.118531e-001  -4.367775e+001 
144939812.5  -1.113489e-001  -4.379102e+001 
145283375  -1.102226e-001  -4.399508e+001 
145626937.5  -1.228849e-001  -4.407269e+001 
145970500  -1.136080e-001  -4.422704e+001 
146314062.5  -1.158781e-001  -4.435327e+001 
146657625  -1.211493e-001  -4.448787e+001 
147001187.5  -1.227619e-001  -4.457387e+001 
147344750  -1.281979e-001  -4.471918e+001 
147688312.5  -1.264796e-001  -4.489093e+001 
148031875  -1.327114e-001  -4.496422e+001 
148375437.5  -1.390720e-001  -4.510666e+001 
148719000  -1.336241e-001  -4.523951e+001 
149062562.5  -1.520412e-001  -4.529458e+001 
149406125  -1.561908e-001  -4.539521e+001 
149749687.5  -1.511820e-001  -4.548591e+001 
150093250  -1.626574e-001  -4.560713e+001 
150436812.5  -1.636698e-001  -4.571961e+001 
150780375  -1.597750e-001  -4.588951e+001 
151123937.5  -1.612693e-001  -4.613768e+001 
151467500  -1.556372e-001  -4.630109e+001 
151811062.5  -1.552216e-001  -4.649004e+001 
152154625  -1.650778e-001  -4.663279e+001 
152498187.5  -1.606993e-001  -4.686428e+001 
152841750  -1.616903e-001  -4.702426e+001 
153185312.5  -1.559256e-001  -4.717116e+001 
153528875  -1.684178e-001  -4.729490e+001 
153872437.5  -1.661930e-001  -4.737737e+001 
154216000  -1.669804e-001  -4.751256e+001 
154559562.5  -1.645747e-001  -4.765654e+001 
154903125  -1.660872e-001  -4.774793e+001 
155246687.5  -1.670818e-001  -4.782540e+001 
155590250  -1.641160e-001  -4.794373e+001 
155933812.5  -1.663342e-001  -4.805011e+001 
156277375  -1.686631e-001  -4.810459e+001 
156620937.5  -1.696527e-001  -4.814492e+001 
156964500  -1.698656e-001  -4.826035e+001 
