!Mini-Circuits Laboratory
!S-Parameters
!Model: QCH-63B+
!Run/Date Code:1830 
!DATA FOR: UNIT # 1
!Unit soldered on TB-998+
!Freq	S11:SOLT4(ON)	S12:SOLT4(ON)	S13:SOLT4(ON)	S14:SOLT4(ON)
!	S21:SOLT4(ON)	S22:SOLT4(ON)	S23:SOLT4(ON)	S24:SOLT4(ON)
!	S31:SOLT4(ON)	S32:SOLT4(ON)	S33:SOLT4(ON)	S34:SOLT4(ON)
!	S41:SOLT4(ON)	S42:SOLT4(ON)	S43:SOLT4(ON)	S44:SOLT4(ON)
!PortZ  Port1:50+j0    Port2:50+j0    Port3:50+j0    Port4:50+j0
!Above PortZ is port z conversion or system Z0 setting when saving the data.
!When reading, reference impedance value at option line is always used.
!Connection: PORT-1 - pin<1>;   PORT-2 - pin<2>;    PORT-3- pin<3>; PORT-4- pin<4> 
!PORT EXTENSION DONE ON TEST BOARD WITH LOSS ON AND MISMATCH ON
!Agilent Technologies,E5071C,MY46101856,A.11.31
!Date: Sun Jul 29 04:15:24 2018
# Hz S RI R 50
10000000	-4.189702e-004	-6.036301e-003	1.125312e-004	1.948526e-003	9.888079e-001	-3.101550e-002	4.432041e-004	1.257651e-002
	1.148831e-004	1.945504e-003	-2.293476e-005	-5.343654e-003	4.434631e-004	1.258978e-002	9.882661e-001	-3.080080e-002
	9.879310e-001	-3.076082e-002	4.410421e-004	1.258389e-002	2.321825e-004	-5.372035e-003	9.465918e-005	1.955993e-003
	4.451862e-004	1.257572e-002	9.885864e-001	-3.089876e-002	9.581627e-005	1.958501e-003	-2.207836e-005	-5.279712e-003
20000000	-9.407544e-005	-1.104908e-002	4.901018e-004	3.890112e-003	9.873888e-001	-6.126861e-002	1.660808e-003	2.508767e-002
	4.918763e-004	3.893790e-003	3.669005e-005	-1.035549e-002	1.647716e-003	2.510334e-002	9.866108e-001	-6.120253e-002
	9.861681e-001	-6.116687e-002	1.650528e-003	2.509449e-002	3.027111e-004	-1.077724e-002	4.650970e-004	3.896222e-003
	1.658428e-003	2.506692e-002	9.869242e-001	-6.138810e-002	4.643661e-004	3.887926e-003	-9.382918e-006	-1.070372e-002
30000000	-7.949394e-004	-1.620407e-002	1.119518e-003	5.741463e-003	9.846857e-001	-9.152299e-002	3.646136e-003	3.750040e-002
	1.114549e-003	5.753043e-003	-7.820686e-004	-1.521645e-002	3.633938e-003	3.751603e-002	9.842195e-001	-9.147260e-002
	9.838127e-001	-9.121662e-002	3.632912e-003	3.750396e-002	-3.253207e-004	-1.603351e-002	1.068579e-003	5.758960e-003
	3.654796e-003	3.747451e-002	9.842369e-001	-9.171640e-002	1.068034e-003	5.736106e-003	-1.588394e-004	-1.563776e-002
40000000	-2.266954e-003	-2.059764e-002	1.960493e-003	7.417350e-003	9.809243e-001	-1.214793e-001	6.417799e-003	4.975236e-002
	1.955361e-003	7.421383e-003	-2.558949e-003	-1.980982e-002	6.379382e-003	4.976943e-002	9.803322e-001	-1.215887e-001
	9.801296e-001	-1.212539e-001	6.385977e-003	4.975885e-002	-1.152200e-003	-2.073361e-002	1.865443e-003	7.503898e-003
	6.417788e-003	4.971660e-002	9.806240e-001	-1.216309e-001	1.873015e-003	7.470130e-003	-6.785622e-004	-1.989948e-002
50000000	-4.714710e-003	-2.386572e-002	2.885516e-003	8.838213e-003	9.762317e-001	-1.511148e-001	9.918726e-003	6.181643e-002
	2.879776e-003	8.847669e-003	-4.986264e-003	-2.297572e-002	9.873448e-003	6.182028e-002	9.756366e-001	-1.512648e-001
	9.753759e-001	-1.507664e-001	9.860096e-003	6.182149e-002	-2.436139e-003	-2.403087e-002	2.804878e-003	9.064250e-003
	9.911596e-003	6.177217e-002	9.759114e-001	-1.512878e-001	2.788127e-003	9.034766e-003	-1.415003e-003	-2.324815e-002
60000000	-6.691916e-003	-2.606252e-002	3.856671e-003	1.010857e-002	9.701360e-001	-1.804567e-001	1.414427e-002	7.362652e-002
	3.842817e-003	1.013152e-002	-7.194376e-003	-2.497285e-002	1.406538e-002	7.362812e-002	9.694493e-001	-1.806752e-001
	9.693023e-001	-1.801526e-001	1.406388e-002	7.362642e-002	-3.602834e-003	-2.671167e-002	3.850470e-003	1.049984e-002
	1.413287e-002	7.357452e-002	9.699033e-001	-1.808341e-001	3.857863e-003	1.046810e-002	-2.055791e-003	-2.596515e-002
70000000	-8.297761e-003	-2.780178e-002	4.902424e-003	1.132553e-002	9.626882e-001	-2.093467e-001	1.908329e-002	8.514967e-002
	4.879099e-003	1.132025e-002	-8.751081e-003	-2.662030e-002	1.895945e-002	8.515974e-002	9.619911e-001	-2.096929e-001
	9.619028e-001	-2.090324e-001	1.897844e-002	8.515031e-002	-4.575856e-003	-2.888290e-002	5.015361e-003	1.179833e-002
	1.906538e-002	8.509350e-002	9.624147e-001	-2.098768e-001	5.036589e-003	1.177134e-002	-2.906043e-003	-2.816204e-002
80000000	-8.942445e-003	-2.923639e-002	6.068901e-003	1.255154e-002	9.544436e-001	-2.382497e-001	2.470108e-002	9.638022e-002
	6.049734e-003	1.256163e-002	-9.526687e-003	-2.811036e-002	2.456515e-002	9.639921e-002	9.538886e-001	-2.383476e-001
	9.537372e-001	-2.376302e-001	2.456629e-002	9.638608e-002	-5.271862e-003	-3.071731e-002	6.323957e-003	1.300838e-002
	2.468994e-002	9.630800e-002	9.540944e-001	-2.385851e-001	6.341338e-003	1.298972e-002	-3.812724e-003	-2.974578e-002
90000000	-9.963884e-003	-3.036446e-002	7.318688e-003	1.369201e-002	9.452778e-001	-2.664872e-001	3.101191e-002	1.072637e-001
	7.287551e-003	1.366888e-002	-1.043593e-002	-2.922917e-002	3.082549e-002	1.072995e-001	9.447291e-001	-2.667731e-001
	9.444762e-001	-2.659885e-001	3.082375e-002	1.072730e-001	-6.066110e-003	-3.196976e-002	7.745619e-003	1.411420e-002
	3.098819e-002	1.071743e-001	9.447910e-001	-2.668097e-001	7.726116e-003	1.410804e-002	-4.779490e-003	-3.090252e-002
100000000	-1.091995e-002	-3.159626e-002	8.614374e-003	1.469794e-002	9.351767e-001	-2.945045e-001	3.799026e-002	1.177890e-001
	8.669511e-003	1.464411e-002	-1.169460e-002	-2.978891e-002	3.777800e-002	1.178238e-001	9.347391e-001	-2.947214e-001
	9.344120e-001	-2.939513e-001	3.774507e-002	1.178150e-001	-7.476259e-003	-3.276339e-002	9.218411e-003	1.509902e-002
	3.796006e-002	1.176931e-001	9.347180e-001	-2.949323e-001	9.214933e-003	1.507669e-002	-5.678435e-003	-3.147563e-002
110000000	-1.197807e-002	-3.204364e-002	9.935274e-003	1.551276e-002	9.241990e-001	-3.219433e-001	4.557489e-002	1.278724e-001
	9.995282e-003	1.552884e-002	-1.335724e-002	-2.997992e-002	4.530572e-002	1.279139e-001	9.237481e-001	-3.221364e-001
	9.234224e-001	-3.213077e-001	4.527037e-002	1.279058e-001	-9.294705e-003	-3.294463e-002	1.081612e-002	1.590004e-002
	4.552542e-002	1.277732e-001	9.237346e-001	-3.224661e-001	1.077745e-002	1.588507e-002	-6.929208e-003	-3.216269e-002
120000000	-1.346574e-002	-3.197891e-002	1.122691e-002	1.615118e-002	9.127461e-001	-3.490548e-001	5.380907e-002	1.375900e-001
	1.125213e-002	1.616213e-002	-1.552988e-002	-2.977954e-002	5.343931e-002	1.376284e-001	9.120031e-001	-3.492918e-001
	9.119452e-001	-3.484663e-001	5.343098e-002	1.376225e-001	-1.164566e-002	-3.227619e-002	1.243630e-002	1.649860e-002
	5.374684e-002	1.374941e-001	9.121947e-001	-3.496783e-001	1.239974e-002	1.650394e-002	-8.469160e-003	-3.297739e-002
130000000	-1.446172e-002	-3.142772e-002	1.245720e-002	1.692850e-002	9.003115e-001	-3.755335e-001	6.256909e-002	1.468476e-001
	1.243643e-002	1.696592e-002	-1.654328e-002	-2.890344e-002	6.211068e-002	1.469235e-001	8.994037e-001	-3.758274e-001
	8.995532e-001	-3.750108e-001	6.211515e-002	1.469233e-001	-1.338285e-002	-3.155744e-002	1.401752e-002	1.717310e-002
	6.250339e-002	1.467780e-001	8.997481e-001	-3.762192e-001	1.395609e-002	1.712862e-002	-9.887934e-003	-3.251477e-002
140000000	-1.545705e-002	-3.051430e-002	1.343434e-002	1.804280e-002	8.868586e-001	-4.014872e-001	7.187883e-002	1.556393e-001
	1.340524e-002	1.805659e-002	-1.568147e-002	-2.693854e-002	7.141823e-002	1.558356e-001	8.863823e-001	-4.019791e-001
	8.864337e-001	-4.010518e-001	7.140551e-002	1.558443e-001	-1.337239e-002	-3.134297e-002	1.527975e-002	1.813163e-002
	7.184092e-002	1.556041e-001	8.864776e-001	-4.024489e-001	1.526603e-002	1.810267e-002	-1.149849e-002	-2.986958e-002
150000000	-1.630683e-002	-2.962910e-002	1.452452e-002	1.912863e-002	8.724620e-001	-4.268496e-001	8.164889e-002	1.639187e-001
	1.446304e-002	1.911635e-002	-1.489023e-002	-2.520927e-002	8.119285e-002	1.642287e-001	8.723977e-001	-4.273831e-001
	8.723488e-001	-4.264133e-001	8.116507e-002	1.642380e-001	-1.365835e-002	-3.064962e-002	1.661024e-002	1.899862e-002
	8.164450e-002	1.638819e-001	8.722754e-001	-4.279575e-001	1.656722e-002	1.892688e-002	-1.324756e-002	-2.713149e-002
160000000	-1.723382e-002	-2.994664e-002	1.626225e-002	1.980294e-002	8.571806e-001	-4.513768e-001	9.195284e-002	1.715717e-001
	1.628115e-002	1.979281e-002	-1.600055e-002	-2.527139e-002	9.145369e-002	1.719004e-001	8.570666e-001	-4.518817e-001
	8.570175e-001	-4.506759e-001	9.139222e-002	1.719040e-001	-1.645679e-002	-2.976624e-002	1.822280e-002	1.928004e-002
	9.192716e-002	1.715039e-001	8.568952e-001	-4.523958e-001	1.824369e-002	1.916875e-002	-1.534858e-002	-2.615554e-002
170000000	-1.817622e-002	-3.100286e-002	1.860123e-002	2.027314e-002	8.415610e-001	-4.753056e-001	1.028599e-001	1.786703e-001
	1.863526e-002	2.026523e-002	-1.785035e-002	-2.675221e-002	1.022227e-001	1.789887e-001	8.409855e-001	-4.763398e-001
	8.410414e-001	-4.746755e-001	1.021920e-001	1.789722e-001	-2.021684e-002	-2.908071e-002	2.017575e-002	1.919557e-002
	1.027481e-001	1.785786e-001	8.410092e-001	-4.764016e-001	2.020271e-002	1.920421e-002	-1.765189e-002	-2.594923e-002
180000000	-1.952831e-002	-3.178037e-002	2.107103e-002	2.078116e-002	8.246083e-001	-4.984403e-001	1.140714e-001	1.850925e-001
	2.111701e-002	2.069113e-002	-1.938186e-002	-2.791057e-002	1.133585e-001	1.853894e-001	8.239077e-001	-4.993278e-001
	8.240081e-001	-4.975200e-001	1.132993e-001	1.853840e-001	-2.391735e-002	-2.843607e-002	2.226003e-002	1.919800e-002
	1.139199e-001	1.849724e-001	8.239663e-001	-4.993177e-001	2.224028e-002	1.913019e-002	-1.958119e-002	-2.602415e-002
190000000	-2.086583e-002	-3.228688e-002	2.348479e-002	2.138229e-002	8.069014e-001	-5.207636e-001	1.256625e-001	1.908880e-001
	2.348854e-002	2.128059e-002	-2.023927e-002	-2.819002e-002	1.249007e-001	1.912450e-001	8.060666e-001	-5.217343e-001
	8.062548e-001	-5.198731e-001	1.248393e-001	1.912268e-001	-2.646436e-002	-2.822073e-002	2.436779e-002	1.936916e-002
	1.255167e-001	1.907485e-001	8.062198e-001	-5.217187e-001	2.433384e-002	1.932938e-002	-2.196446e-002	-2.545840e-002
200000000	-2.248501e-002	-3.301006e-002	2.599404e-002	2.184764e-002	7.888574e-001	-5.428393e-001	1.377448e-001	1.961521e-001
	2.607481e-002	2.189001e-002	-2.140685e-002	-2.843222e-002	1.369403e-001	1.965962e-001	7.879990e-001	-5.438440e-001
	7.882656e-001	-5.420562e-001	1.368740e-001	1.965926e-001	-2.879127e-002	-2.848632e-002	2.673793e-002	1.959434e-002
	1.376365e-001	1.960230e-001	7.881939e-001	-5.439601e-001	2.665751e-002	1.955918e-002	-2.434703e-002	-2.507341e-002
210000000	-2.493701e-002	-3.374973e-002	2.857041e-002	2.210981e-002	7.702909e-001	-5.641591e-001	1.501176e-001	2.007352e-001
	2.866828e-002	2.215978e-002	-2.285236e-002	-2.864220e-002	1.492710e-001	2.013042e-001	7.693255e-001	-5.651015e-001
	7.697350e-001	-5.633958e-001	1.491795e-001	2.012960e-001	-3.138160e-002	-2.896280e-002	2.913918e-002	1.966634e-002
	1.500370e-001	2.006123e-001	7.696257e-001	-5.654015e-001	2.903359e-002	1.961744e-002	-2.728350e-002	-2.491614e-002
220000000	-2.803610e-002	-3.442011e-002	3.127594e-002	2.184520e-002	7.507722e-001	-5.842357e-001	1.626816e-001	2.045485e-001
	3.129752e-002	2.199710e-002	-2.523688e-002	-2.918941e-002	1.617592e-001	2.052288e-001	7.498359e-001	-5.852262e-001
	7.503224e-001	-5.834441e-001	1.616845e-001	2.052226e-001	-3.461512e-002	-2.944355e-002	3.146085e-002	1.943162e-002
	1.626027e-001	2.044390e-001	7.500754e-001	-5.855848e-001	3.134670e-002	1.933901e-002	-3.043087e-002	-2.488727e-002
230000000	-3.182153e-002	-3.511041e-002	3.400109e-002	2.124184e-002	7.311422e-001	-6.040420e-001	1.756573e-001	2.077724e-001
	3.395496e-002	2.132264e-002	-2.811150e-002	-2.959900e-002	1.746550e-001	2.085362e-001	7.300810e-001	-6.052934e-001
	7.306373e-001	-6.033749e-001	1.745899e-001	2.085437e-001	-3.809003e-002	-3.006958e-002	3.382208e-002	1.885552e-002
	1.755496e-001	2.076340e-001	7.303822e-001	-6.055580e-001	3.368905e-002	1.883399e-002	-3.382013e-002	-2.499985e-002
240000000	-3.601576e-002	-3.571320e-002	3.675582e-002	2.018328e-002	7.111744e-001	-6.233011e-001	1.888883e-001	2.103297e-001
	3.665096e-002	2.021227e-002	-3.138934e-002	-3.015953e-002	1.877950e-001	2.112299e-001	7.100415e-001	-6.247256e-001
	7.107608e-001	-6.225594e-001	1.877358e-001	2.111941e-001	-4.177582e-002	-3.074030e-002	3.612027e-002	1.803994e-002
	1.887402e-001	2.102081e-001	7.103225e-001	-6.249451e-001	3.604999e-002	1.806782e-002	-3.734001e-002	-2.514282e-002
250000000	-4.028784e-002	-3.594123e-002	3.941102e-002	1.875223e-002	6.906334e-001	-6.413271e-001	2.021155e-001	2.121780e-001
	3.924322e-002	1.875262e-002	-3.496823e-002	-3.062747e-002	2.009536e-001	2.131993e-001	6.894163e-001	-6.427734e-001
	6.902936e-001	-6.404481e-001	2.009141e-001	2.131685e-001	-4.535558e-002	-3.126285e-002	3.836624e-002	1.701396e-002
	2.019108e-001	2.120945e-001	6.897223e-001	-6.430050e-001	3.829157e-002	1.703328e-002	-4.079981e-002	-2.529106e-002
260000000	-4.448966e-002	-3.581653e-002	4.192741e-002	1.712755e-002	6.693158e-001	-6.577145e-001	2.152126e-001	2.132254e-001
	4.179116e-002	1.706200e-002	-3.851510e-002	-3.080607e-002	2.139993e-001	2.143440e-001	6.680176e-001	-6.592857e-001
	6.689993e-001	-6.567694e-001	2.139641e-001	2.143080e-001	-4.879850e-002	-3.164132e-002	4.048587e-002	1.575060e-002
	2.150077e-001	2.131450e-001	6.683011e-001	-6.594455e-001	4.042330e-002	1.579291e-002	-4.426894e-002	-2.531108e-002
270000000	-4.867358e-002	-3.555176e-002	4.440850e-002	1.503415e-002	6.476655e-001	-6.737954e-001	2.285114e-001	2.135662e-001
	4.430821e-002	1.494172e-002	-4.235093e-002	-3.115469e-002	2.272778e-001	2.147958e-001	6.462629e-001	-6.755193e-001
	6.473830e-001	-6.728523e-001	2.272355e-001	2.147988e-001	-5.243628e-002	-3.222457e-002	4.267648e-002	1.420552e-002
	2.282843e-001	2.134967e-001	6.465545e-001	-6.756165e-001	4.264531e-002	1.412438e-002	-4.790569e-002	-2.548117e-002
280000000	-5.281135e-002	-3.518638e-002	4.687171e-002	1.263807e-002	6.256941e-001	-6.892540e-001	2.419695e-001	2.132644e-001
	4.683738e-002	1.258136e-002	-4.641339e-002	-3.139952e-002	2.407262e-001	2.145950e-001	6.242276e-001	-6.911812e-001
	6.254300e-001	-6.883845e-001	2.406879e-001	2.145930e-001	-5.572813e-002	-3.288658e-002	4.496424e-002	1.228310e-002
	2.417241e-001	2.131990e-001	6.244866e-001	-6.912052e-001	4.498111e-002	1.226666e-002	-5.149467e-002	-2.603093e-002
290000000	-5.671328e-002	-3.463394e-002	4.930044e-002	1.002860e-002	6.036306e-001	-7.038855e-001	2.554274e-001	2.122743e-001
	4.926456e-002	1.005844e-002	-5.048974e-002	-3.143073e-002	2.541852e-001	2.136276e-001	6.020142e-001	-7.059138e-001
	6.034141e-001	-7.029850e-001	2.541546e-001	2.136317e-001	-5.905377e-002	-3.342736e-002	4.744100e-002	1.023187e-002
	2.551532e-001	2.122323e-001	6.022387e-001	-7.059229e-001	4.741933e-002	1.013527e-002	-5.488998e-002	-2.662639e-002
300000000	-6.066210e-002	-3.364613e-002	5.147677e-002	7.394175e-003	5.813303e-001	-7.172344e-001	2.686400e-001	2.106417e-001
	5.155985e-002	7.364638e-003	-5.447578e-002	-3.092452e-002	2.673451e-001	2.121295e-001	5.796214e-001	-7.192010e-001
	5.811426e-001	-7.162439e-001	2.673054e-001	2.121405e-001	-6.199459e-002	-3.358143e-002	4.981080e-002	8.013914e-003
	2.683593e-001	2.106141e-001	5.798170e-001	-7.192169e-001	4.978463e-002	7.930447e-003	-5.825927e-002	-2.706395e-002
310000000	-6.432197e-002	-3.238473e-002	5.330012e-002	4.636298e-003	5.586251e-001	-7.297760e-001	2.817935e-001	2.082999e-001
	5.338881e-002	4.715561e-003	-5.855474e-002	-3.010217e-002	2.805030e-001	2.098747e-001	5.568221e-001	-7.317582e-001
	5.585116e-001	-7.288014e-001	2.804488e-001	2.099115e-001	-6.511464e-002	-3.360612e-002	5.200582e-002	5.633256e-003
	2.815117e-001	2.082970e-001	5.569618e-001	-7.318264e-001	5.194524e-002	5.589144e-003	-6.146357e-002	-2.740490e-002
320000000	-6.814716e-002	-3.080086e-002	5.469579e-002	1.594759e-003	5.356239e-001	-7.421116e-001	2.949667e-001	2.053106e-001
	5.461544e-002	1.733294e-003	-6.278886e-002	-2.908400e-002	2.937008e-001	2.069845e-001	5.337671e-001	-7.440390e-001
	5.355915e-001	-7.411970e-001	2.936695e-001	2.070181e-001	-6.829643e-002	-3.327118e-002	5.382134e-002	2.951850e-003
	2.947168e-001	2.053009e-001	5.337323e-001	-7.441549e-001	5.378799e-002	2.977690e-003	-6.473798e-002	-2.753209e-002
330000000	-7.182792e-002	-2.903236e-002	5.557311e-002	-1.592052e-003	5.125848e-001	-7.539095e-001	3.081278e-001	2.017127e-001
	5.543256e-002	-1.422704e-003	-6.681453e-002	-2.760120e-002	3.068705e-001	2.035079e-001	5.105672e-001	-7.558800e-001
	5.126005e-001	-7.530798e-001	3.068434e-001	2.035490e-001	-7.150736e-002	-3.279667e-002	5.537237e-002	-3.691941e-005
	3.079129e-001	2.017291e-001	5.105549e-001	-7.561007e-001	5.530146e-002	-6.545187e-006	-6.789920e-002	-2.754530e-002
340000000	-7.515019e-002	-2.707131e-002	5.606367e-002	-4.802987e-003	4.897000e-001	-7.649356e-001	3.211637e-001	1.976479e-001
	5.587047e-002	-4.600428e-003	-7.052285e-002	-2.609516e-002	3.198982e-001	1.995795e-001	4.874547e-001	-7.669479e-001
	4.897485e-001	-7.641381e-001	3.198854e-001	1.995932e-001	-7.438738e-002	-3.191411e-002	5.650977e-002	-3.168362e-003
	3.209509e-001	1.976800e-001	4.874358e-001	-7.672343e-001	5.643340e-002	-3.132711e-003	-7.074543e-002	-2.716963e-002
350000000	-7.801591e-002	-2.495055e-002	5.618988e-002	-7.933906e-003	4.670640e-001	-7.747937e-001	3.339015e-001	1.931483e-001
	5.589262e-002	-7.743180e-003	-7.361502e-002	-2.431339e-002	3.326487e-001	1.952266e-001	4.645353e-001	-7.768454e-001
	4.671309e-001	-7.740961e-001	3.325991e-001	1.952439e-001	-7.682991e-002	-3.083923e-002	5.742066e-002	-6.321155e-003
	3.336934e-001	1.932157e-001	4.645502e-001	-7.772035e-001	5.733288e-002	-6.301045e-003	-7.312330e-002	-2.650953e-002
360000000	-8.037159e-002	-2.270649e-002	5.597820e-002	-1.077452e-002	4.442075e-001	-7.836775e-001	3.463513e-001	1.880580e-001
	5.577751e-002	-1.073769e-002	-7.623046e-002	-2.237604e-002	3.451047e-001	1.903204e-001	4.414487e-001	-7.858102e-001
	4.443043e-001	-7.830389e-001	3.450430e-001	1.903060e-001	-7.847436e-002	-2.948815e-002	5.791078e-002	-9.428793e-003
	3.461580e-001	1.881337e-001	4.414653e-001	-7.861402e-001	5.786087e-002	-9.427814e-003	-7.516354e-002	-2.545849e-002
370000000	-8.219478e-002	-2.040430e-002	5.537043e-002	-1.378734e-002	4.209598e-001	-7.919061e-001	3.586335e-001	1.822591e-001
	5.531019e-002	-1.367654e-002	-7.850908e-002	-2.016566e-002	3.573532e-001	1.846670e-001	4.179021e-001	-7.940723e-001
	4.210466e-001	-7.912538e-001	3.573010e-001	1.846464e-001	-8.008355e-002	-2.775454e-002	5.803266e-002	-1.271587e-002
	3.584233e-001	1.823366e-001	4.179759e-001	-7.943716e-001	5.801600e-002	-1.269349e-002	-7.706426e-002	-2.389823e-002
380000000	-8.361609e-002	-1.792090e-002	5.472417e-002	-1.671931e-002	3.974783e-001	-7.995059e-001	3.707253e-001	1.758190e-001
	5.469176e-002	-1.653430e-002	-8.046408e-002	-1.809786e-002	3.694305e-001	1.784131e-001	3.942339e-001	-8.016499e-001
	3.975534e-001	-7.988084e-001	3.693718e-001	1.783688e-001	-8.128315e-002	-2.588464e-002	5.795061e-002	-1.617574e-002
	3.704824e-001	1.759448e-001	3.943014e-001	-8.019043e-001	5.799008e-002	-1.610509e-002	-7.885276e-002	-2.235096e-002
390000000	-8.459636e-002	-1.561451e-002	5.426282e-002	-1.952216e-002	3.741024e-001	-8.063447e-001	3.825323e-001	1.688817e-001
	5.425552e-002	-1.937060e-002	-8.203905e-002	-1.587986e-002	3.812595e-001	1.716294e-001	3.706793e-001	-8.083490e-001
	3.742008e-001	-8.055934e-001	3.811638e-001	1.715794e-001	-8.213108e-002	-2.359837e-002	5.801521e-002	-1.946212e-002
	3.822771e-001	1.690205e-001	3.707058e-001	-8.086201e-001	5.795647e-002	-1.950904e-002	-8.030692e-002	-2.065186e-002
400000000	-8.530726e-002	-1.331326e-002	5.390820e-002	-2.194913e-002	3.509750e-001	-8.124411e-001	3.940662e-001	1.615918e-001
	5.400429e-002	-2.183828e-002	-8.327985e-002	-1.353151e-002	3.928342e-001	1.644244e-001	3.475337e-001	-8.142877e-001
	3.511733e-001	-8.116343e-001	3.927015e-001	1.644216e-001	-8.267548e-002	-2.132309e-002	5.815567e-002	-2.253832e-002
	3.938276e-001	1.617074e-001	3.474852e-001	-8.145095e-001	5.814511e-002	-2.261230e-002	-8.133761e-002	-1.896439e-002
410000000	-8.596526e-002	-1.088341e-002	5.347922e-002	-2.429530e-002	3.278645e-001	-8.177936e-001	4.053486e-001	1.537967e-001
	5.341881e-002	-2.419232e-002	-8.439296e-002	-1.108476e-002	4.041300e-001	1.567335e-001	3.243791e-001	-8.195337e-001
