
!Input port 1, output port 2.  Part de-embedded to pins.  Package LP3, Vs=5V
# MHZ S MA R 50

40 1.002 -13.64 0.011 -69.452 1.455e-3 81.428 0.297 -164.258
78.086 0.997 -26.429 0.03 -45.462 2.906e-3 82.494 0.364 -159.048
116.172 0.992 -38.746 0.06 -39.878 4.401e-3 79.919 0.426 -159.758
154.258 0.987 -50.387 0.103 -40.667 5.702e-3 76.101 0.472 -162.964
192.344 0.98 -61.181 0.155 -44.05 6.902e-3 71.776 0.504 -166.423
230.431 0.975 -71.104 0.217 -48.452 7.918e-3 67.181 0.525 -169.728
268.517 0.969 -80.192 0.285 -53.264 8.75e-3 62.909 0.537 -172.916
306.603 0.962 -88.512 0.358 -58.14 9.438e-3 59.126 0.542 -175.855
344.689 0.956 -96.144 0.435 -62.824 9.929e-3 55.518 0.544 -178.539
382.775 0.949 -103.167 0.515 -67.287 0.01 52.789 0.544 179.029
420.861 0.944 -109.589 0.6 -71.551 0.011 51.254 0.543 176.845
458.947 0.938 -115.461 0.687 -75.567 0.011 49.165 0.54 174.714
497.033 0.933 -120.758 0.777 -79.471 0.011 47.669 0.532 172.843
535.12 0.928 -125.609 0.871 -83.182 0.011 47.032 0.523 170.998
573.206 0.923 -130.153 0.971 -86.841 0.01 45.96 0.513 168.875
611.292 0.917 -134.481 1.073 -90.451 0.01 45.538 0.502 166.816
649.378 0.912 -138.725 1.185 -93.984 9.615e-3 45.593 0.493 164.798
687.464 0.902 -142.937 1.297 -97.677 9.061e-3 46.29 0.481 162.649
725.55 0.894 -146.907 1.414 -101.158 8.373e-3 48.048 0.469 161.077
763.636 0.885 -150.689 1.539 -104.641 7.709e-3 51.029 0.457 159.37
801.722 0.876 -154.333 1.672 -108.211 6.894e-3 56.637 0.44 157.816
839.809 0.868 -157.819 1.817 -111.812 6.158e-3 65.35 0.421 156.293
877.895 0.857 -161.348 1.965 -115.643 5.625e-3 78.329 0.399 154.312
915.981 0.844 -164.752 2.12 -119.522 5.647e-3 95.073 0.374 152.185
954.067 0.829 -168.199 2.283 -123.496 6.352e-3 112.487 0.349 150.028
992.153 0.811 -171.738 2.451 -127.694 7.783e-3 126.338 0.324 147.855
1030.239 0.791 -175.404 2.622 -132.066 9.901e-3 135.256 0.298 145.967
1068.325 0.771 -178.902 2.808 -136.501 0.013 140.288 0.271 144.871
1106.411 0.747 177.692 2.993 -141.13 0.016 142.7 0.242 144.762
1144.498 0.72 174.408 3.181 -145.957 0.019 143.372 0.209 146.045
1182.584 0.692 171.204 3.366 -151.002 0.024 142.665 0.175 149.46
1220.67 0.66 168.255 3.55 -156.215 0.028 141 0.142 156.552
1258.756 0.625 165.476 3.726 -161.66 0.033 138.513 0.115 169.073
1296.842 0.589 162.967 3.889 -167.277 0.038 135.488 0.104 -172.942
1334.928 0.55 160.94 4.037 -173.041 0.043 131.964 0.113 -154.168
1373.014 0.511 159.49 4.161 -178.853 0.048 128.202 0.138 -141.527
1411.1 0.474 158.801 4.254 175.316 0.053 124.16 0.173 -135.417
1449.187 0.439 159.019 4.323 169.593 0.058 120.094 0.213 -132.944
1487.273 0.409 160.117 4.367 163.864 0.063 115.967 0.254 -132.654
1525.359 0.385 162.144 4.385 158.267 0.068 111.812 0.292 -133.691
1563.445 0.366 164.993 4.388 152.818 0.073 107.661 0.326 -135.269
1601.531 0.355 168.326 4.362 147.47 0.077 103.576 0.354 -137.693
1639.617 0.35 171.803 4.316 142.338 0.08 99.597 0.377 -140.491
1677.703 0.352 174.945 4.256 137.453 0.084 95.836 0.397 -143.629
1715.789 0.36 177.464 4.18 132.766 0.087 92.258 0.417 -146.933
1753.876 0.37 179.245 4.102 128.342 0.089 88.849 0.436 -150.087
1791.962 0.384 -179.688 4.026 124.112 0.092 85.55 0.455 -153.134
1830.048 0.396 -179.12 3.94 120.052 0.095 82.475 0.471 -155.86
1868.134 0.409 -179.003 3.852 116.146 0.097 79.538 0.484 -158.445
1906.22 0.423 -179.334 3.759 112.374 0.099 76.634 0.494 -161.095
1944.306 0.437 -179.988 3.664 108.78 0.1 73.858 0.5 -163.839
1982.392 0.452 178.957 3.564 105.357 0.102 71.227 0.505 -166.822
2020.478 0.466 177.645 3.477 102.133 0.104 68.745 0.51 -169.786
2058.565 0.479 176.17 3.387 99.013 0.105 66.382 0.515 -172.859
2096.651 0.491 174.587 3.3 96.051 0.106 64.226 0.522 -175.685
2134.737 0.502 172.955 3.222 93.154 0.108 61.965 0.53 -178.348
2172.823 0.512 171.205 3.141 90.325 0.109 59.895 0.537 179.124
2210.909 0.522 169.412 3.07 87.598 0.111 57.8 0.543 176.756
2248.995 0.532 167.487 2.998 85 0.112 55.796 0.547 174.414
2287.081 0.54 165.415 2.925 82.375 0.113 53.867 0.549 172
2325.167 0.549 163.378 2.852 79.967 0.114 52.065 0.553 169.664
2363.254 0.559 161.258 2.784 77.561 0.115 50.205 0.557 167.314
2401.34 0.57 159.175 2.724 75.172 0.116 48.421 0.564 165.053
2439.426 0.579 157.241 2.67 72.75 0.117 46.661 0.571 162.985
2477.512 0.589 155.334 2.611 70.326 0.118 44.78 0.577 161.03
2515.598 0.598 153.467 2.549 67.989 0.119 42.879 0.58 159.082
2553.684 0.606 151.486 2.484 65.617 0.119 41.14 0.581 157.107
2591.77 0.617 149.473 2.423 63.329 0.12 39.444 0.582 155.104
2629.856 0.625 147.393 2.362 61.275 0.12 37.846 0.583 152.944
2667.943 0.634 145.289 2.299 59.391 0.12 36.373 0.585 150.777
2706.029 0.644 143.311 2.244 57.432 0.121 34.919 0.59 148.738
2744.115 0.655 141.4 2.192 55.466 0.121 33.522 0.597 146.8
2782.201 0.667 139.671 2.147 53.461 0.122 32.024 0.607 145.105
2820.287 0.676 138.149 2.096 51.466 0.122 30.494 0.613 143.474
2858.373 0.686 136.73 2.045 49.573 0.122 29.048 0.618 141.97
2896.459 0.693 135.313 1.994 47.746 0.122 27.626 0.621 140.518
2934.545 0.701 133.907 1.944 46.022 0.122 26.355 0.622 138.922
2972.632 0.706 132.362 1.892 44.368 0.121 25.151 0.622 137.242
3010.718 0.712 130.875 1.843 42.845 0.121 24.026 0.623 135.498
3048.804 0.719 129.399 1.799 41.458 0.121 22.984 0.626 133.866
3086.89 0.729 128.102 1.759 39.975 0.121 21.867 0.632 132.18
3124.976 0.737 126.839 1.718 38.441 0.121 20.763 0.639 130.596
3163.062 0.745 125.672 1.677 36.992 0.121 19.745 0.644 129.27
3201.148 0.752 124.655 1.637 35.558 0.12 18.65 0.65 127.997
3239.234 0.758 123.699 1.6 34.234 0.12 17.727 0.655 126.774
3277.321 0.761 122.729 1.562 33.015 0.12 16.959 0.659 125.61
3315.407 0.763 121.779 1.528 31.98 0.12 16.269 0.664 124.525
3353.493 0.767 120.79 1.498 30.898 0.12 15.531 0.67 123.454
3391.579 0.771 119.812 1.47 29.84 0.12 14.782 0.678 122.465
3429.665 0.777 118.812 1.442 28.632 0.12 13.939 0.685 121.679
3467.751 0.783 117.841 1.412 27.422 0.12 13.067 0.689 120.938
3505.837 0.792 116.985 1.382 26.217 0.12 12.221 0.691 120.243
3543.923 0.798 116.258 1.352 25.049 0.12 11.448 0.693 119.528
3582.01 0.803 115.609 1.321 23.981 0.12 10.727 0.691 118.768
3620.096 0.806 115.01 1.292 23.095 0.119 10.176 0.69 118.001
3658.182 0.808 114.438 1.267 22.31 0.119 9.718 0.69 117.199
3696.268 0.81 113.878 1.247 21.527 0.119 9.214 0.694 116.36
3734.354 0.811 113.255 1.226 20.803 0.12 8.775 0.698 115.614
3772.44 0.815 112.582 1.207 19.925 0.12 8.196 0.703 114.893
3810.526 0.818 111.947 1.188 19.064 0.12 7.618 0.708 114.307
3848.612 0.822 111.303 1.167 18.206 0.12 7.094 0.711 113.845
3886.699 0.828 110.808 1.148 17.4 0.12 6.584 0.712 113.452
3924.785 0.83 110.406 1.129 16.605 0.12 6.08 0.711 113.129
3962.871 0.83 110.064 1.111 15.9 0.12 5.831 0.71 112.785
4000.957 0.829 109.728 1.096 15.335 0.121 5.455 0.71 112.353
4039.043 0.83 109.45 1.084 14.808 0.121 5.101 0.712 111.881
4077.129 0.829 109.105 1.072 14.25 0.122 4.828 0.713 111.522
4115.215 0.827 108.625 1.061 13.563 0.123 4.339 0.717 111.074
4153.301 0.829 108.052 1.05 12.862 0.124 3.869 0.718 110.672
4191.388 0.83 107.558 1.039 12.171 0.124 3.517 0.719 110.345
4229.474 0.831 107.101 1.028 11.494 0.125 3.114 0.72 109.928
4267.56 0.832 106.741 1.017 10.905 0.125 2.752 0.718 109.57
4305.646 0.833 106.458 1.008 10.359 0.126 2.437 0.718 109.202
4343.732 0.832 106.192 1 9.795 0.127 2.168 0.718 108.815
4381.818 0.829 105.932 0.993 9.213 0.128 1.9 0.72 108.422
4419.904 0.827 105.638 0.987 8.618 0.129 1.529 0.721 108.053
4457.99 0.826 105.194 0.983 7.965 0.131 1.057 0.722 107.706
4496.077 0.824 104.587 0.977 7.278 0.132 0.586 0.721 107.378
4534.163 0.822 103.946 0.971 6.538 0.133 0.095 0.722 107.11
4572.249 0.823 103.303 0.966 5.835 0.134 -0.364 0.72 106.857
4610.335 0.822 102.709 0.96 5.167 0.135 -0.843 0.718 106.568
4648.421 0.821 102.155 0.957 4.58 0.137 -1.262 0.717 106.272
4686.507 0.82 101.597 0.953 3.866 0.138 -1.686 0.714 105.974
4724.593 0.818 101.047 0.952 3.205 0.14 -2.06 0.711 105.704
4762.679 0.816 100.461 0.95 2.538 0.141 -2.534 0.709 105.306
4800.766 0.812 99.779 0.949 1.755 0.143 -3.1 0.709 104.95
4838.852 0.809 98.991 0.948 1.001 0.145 -3.703 0.706 104.628
4876.938 0.808 98.098 0.948 0.194 0.147 -4.229 0.703 104.261
4915.024 0.806 97.2 0.946 -0.611 0.148 -4.845 0.7 103.902
4953.11 0.803 96.298 0.945 -1.391 0.15 -5.488 0.699 103.508
4991.196 0.801 95.392 0.944 -2.21 0.152 -6.086 0.696 103.108
5029.282 0.8 94.495 0.944 -3.055 0.154 -6.684 0.694 102.696
5067.368 0.797 93.576 0.944 -3.937 0.156 -7.356 0.691 102.292
5105.455 0.793 92.623 0.946 -4.824 0.158 -8.062 0.69 101.898
5143.541 0.79 91.579 0.946 -5.752 0.16 -8.748 0.686 101.514
5181.627 0.787 90.441 0.948 -6.714 0.162 -9.497 0.682 101.112
5219.713 0.785 89.241 0.95 -7.695 0.164 -10.32 0.677 100.654
5257.799 0.783 87.972 0.95 -8.729 0.167 -11.17 0.672 100.12
5295.885 0.781 86.688 0.952 -9.791 0.169 -12.059 0.668 99.499
5333.971 0.779 85.385 0.953 -10.918 0.171 -12.967 0.663 98.772
5372.057 0.776 84.06 0.954 -12.031 0.173 -13.958 0.66 97.948
5410.144 0.775 82.664 0.957 -13.148 0.176 -14.915 0.657 97.129
5448.23 0.771 81.189 0.959 -14.316 0.178 -15.875 0.657 96.357
5486.316 0.769 79.657 0.959 -15.524 0.18 -16.881 0.656 95.655
5524.402 0.767 78.077 0.96 -16.758 0.182 -17.89 0.655 95.01
5562.488 0.765 76.469 0.958 -17.953 0.184 -19 0.653 94.44
5600.574 0.767 74.879 0.958 -19.265 0.186 -20.173 0.65 93.94
5638.66 0.766 73.31 0.956 -20.582 0.188 -21.3 0.646 93.366
5676.746 0.764 71.715 0.954 -21.939 0.189 -22.49 0.64 92.667
5714.833 0.762 70.184 0.952 -23.243 0.191 -23.638 0.633 91.847
5752.919 0.76 68.523 0.95 -24.56 0.193 -24.77 0.627 90.866
5791.005 0.757 66.87 0.951 -25.922 0.195 -25.924 0.622 89.588
5829.091 0.757 65.083 0.951 -27.316 0.197 -27.17 0.618 88.278
5867.177 0.756 63.374 0.95 -28.695 0.198 -28.397 0.616 86.85
5905.263 0.755 61.632 0.948 -30.099 0.2 -29.675 0.615 85.392
5943.349 0.755 59.986 0.945 -31.576 0.202 -31 0.614 84.038
5981.435 0.755 58.353 0.941 -33.012 0.203 -32.308 0.615 82.708
6019.522 0.756 56.712 0.937 -34.499 0.204 -33.642 0.614 81.316
6057.608 0.758 55.204 0.933 -35.932 0.205 -34.858 0.612 80.027
6095.694 0.758 53.535 0.928 -37.384 0.206 -36.178 0.61 78.704
6133.78 0.757 51.866 0.923 -38.868 0.207 -37.504 0.608 77.275
6171.866 0.758 50.183 0.919 -40.348 0.208 -38.819 0.605 75.592
6209.952 0.759 48.478 0.915 -41.869 0.209 -40.224 0.605 73.919
6248.038 0.762 46.925 0.91 -43.452 0.21 -41.666 0.604 72.109
6286.124 0.765 45.44 0.904 -44.995 0.21 -43.138 0.603 70.073
6324.211 0.769 43.95 0.895 -46.652 0.21 -44.593 0.601 68.135
6362.297 0.772 42.565 0.885 -48.206 0.21 -46.026 0.601 66.098
6400.383 0.775 41.157 0.876 -49.721 0.21 -47.351 0.601 64.167
6438.469 0.78 39.829 0.866 -51.147 0.209 -48.686 0.601 62.063
6476.555 0.783 38.459 0.857 -52.55 0.209 -49.988 0.602 60.117
6514.641 0.786 37.104 0.848 -53.94 0.208 -51.164 0.605 58.049
6552.727 0.79 35.776 0.838 -55.352 0.208 -52.447 0.608 56.086
6590.813 0.796 34.431 0.829 -56.782 0.207 -53.75 0.613 54.101
6628.9 0.8 33.282 0.818 -58.209 0.206 -55.083 0.617 52.203
6666.986 0.804 32.174 0.807 -59.617 0.205 -56.388 0.622 50.301
6705.072 0.808 31.187 0.795 -60.999 0.204 -57.673 0.626 48.415
6743.158 0.812 30.243 0.782 -62.308 0.202 -58.881 0.628 46.611
6781.244 0.816 29.286 0.769 -63.611 0.201 -60.019 0.631 44.697
6819.33 0.819 28.418 0.757 -64.852 0.199 -61.118 0.635 42.829
6857.416 0.824 27.533 0.745 -66.048 0.198 -62.234 0.639 40.99
6895.502 0.828 26.667 0.732 -67.27 0.196 -63.305 0.642 39.29
6933.589 0.834 25.74 0.72 -68.479 0.194 -64.318 0.647 37.657
6971.675 0.839 24.958 0.708 -69.582 0.193 -65.331 0.65 36.094
7009.761 0.845 24.19 0.697 -70.639 0.191 -66.34 0.655 34.574
7047.847 0.849 23.51 0.684 -71.645 0.189 -67.24 0.658 33.065
7085.933 0.852 22.817 0.672 -72.625 0.187 -68.138 0.662 31.531
7124.019 0.857 22.253 0.66 -73.531 0.185 -69.005 0.666 30.004
7162.105 0.859 21.586 0.649 -74.598 0.184 -69.833 0.673 28.44
7200.191 0.863 20.973 0.639 -75.493 0.182 -70.661 0.681 26.967
7238.278 0.867 20.44 0.628 -76.438 0.18 -71.512 0.69 25.605
7276.364 0.872 19.958 0.617 -77.325 0.179 -72.305 0.698 24.446
7314.45 0.875 19.479 0.606 -78.159 0.177 -73.041 0.703 23.518
7352.536 0.878 19.052 0.595 -78.937 0.175 -73.719 0.708 22.639
7390.622 0.88 18.667 0.583 -79.626 0.173 -74.289 0.713 21.915
7428.708 0.883 18.211 0.572 -80.331 0.171 -74.918 0.715 21.153
7466.794 0.885 17.822 0.561 -80.946 0.169 -75.418 0.717 20.384
7504.88 0.889 17.508 0.551 -81.451 0.167 -75.819 0.721 19.682
7542.967 0.891 17.191 0.541 -81.95 0.165 -76.238 0.725 18.966
7581.053 0.894 16.903 0.532 -82.492 0.164 -76.678 0.73 18.257
7619.139 0.896 16.685 0.524 -82.967 0.162 -77.074 0.736 17.681
7657.225 0.901 16.531 0.515 -83.368 0.161 -77.401 0.74 17.188
7695.311 0.903 16.399 0.507 -83.816 0.159 -77.763 0.745 16.725
7733.397 0.904 16.273 0.499 -84.147 0.158 -78.043 0.748 16.273
7771.483 0.904 16.195 0.491 -84.504 0.156 -78.297 0.753 15.805
7809.569 0.905 16.11 0.484 -84.902 0.155 -78.601 0.757 15.274
7847.656 0.907 16.03 0.477 -85.227 0.154 -78.911 0.761 14.725
7885.742 0.907 15.967 0.47 -85.558 0.153 -79.138 0.768 14.359
7923.828 0.908 15.927 0.464 -85.937 0.152 -79.377 0.774 14.04
7961.914 0.911 15.908 0.458 -86.207 0.151 -79.601 0.78 13.893
8000 0.912 15.905 0.451 -86.518 0.15 -79.779 0.785 13.762
