! Mini-Circuits						
! S2P DATA File Format						
! Type: BAND PASS FILTER						
! Model: BFCN-2450+

!Agilent Technologies,N5230A,MY45001446,A.07.50.26
!Agilent N5230A: A.07.50.26
!Date: Friday, October 19, 2012 15:35:47
!Correction: S11(Full 2 Port(1,2)) 
!S21(Full 2 Port(1,2)) 
!S12(Full 2 Port(1,2)) 
!S22(Full 2 Port(1,2)) 
!S2P File: Measurements: S11, S21, S12, S22:
# Hz S  dB   R 50
100000000 -9.514353e-002 1.720042e+002 -6.629285e+001 7.622097e+001 -6.632092e+001 7.701276e+001 -1.170610e-001 1.717021e+002
400000000 -1.660507e-001 1.492561e+002 -5.508663e+001 5.704092e+001 -5.505436e+001 5.694695e+001 -2.110420e-001 1.486520e+002
700000000 -1.959847e-001 1.263237e+002 -5.102889e+001 3.505172e+001 -5.103230e+001 3.498640e+001 -2.494695e-001 1.254504e+002
928000000 -2.094774e-001 1.086368e+002 -4.955114e+001 1.789874e+001 -4.952444e+001 1.777399e+001 -2.575575e-001 1.077313e+002
1128000000 -2.176922e-001 9.255122e+001 -4.951694e+001 2.522871e+000 -4.953623e+001 2.467749e+000 -2.663544e-001 9.191939e+001
1200000000 -2.256990e-001 8.675889e+001 -5.006590e+001 -2.231901e+000 -5.006375e+001 -2.253880e+000 -2.657729e-001 8.613570e+001
1400000000 -2.409100e-001 6.981338e+001 -5.350148e+001 -1.358409e+001 -5.349358e+001 -1.368971e+001 -2.715615e-001 6.958319e+001
1600000000 -2.765596e-001 5.167870e+001 -6.137040e+001 1.072629e+002 -6.135154e+001 1.075560e+002 -2.943701e-001 5.169724e+001
1800000000 -3.387104e-001 3.058209e+001 -4.387202e+001 1.144049e+002 -4.386029e+001 1.143420e+002 -3.433030e-001 3.114887e+001
2000000000 -5.369549e-001 2.514806e+000 -3.668940e+001 9.316927e+001 -3.669076e+001 9.319988e+001 -5.348206e-001 3.460624e+000
2100000000 -8.479362e-001 -1.892377e+001 -4.067047e+001 1.283527e+002 -4.067440e+001 1.282504e+002 -8.587013e-001 -1.806642e+001
2150000000 -1.220732e+000 -3.454283e+001 -2.939114e+001 -1.707704e+002 -2.939319e+001 -1.708188e+002 -1.266177e+000 -3.411008e+001
2200000000 -2.153327e+000 -5.734404e+001 -1.754833e+001 1.754537e+002 -1.755183e+001 1.754112e+002 -2.307801e+000 -5.813274e+001
2250000000 -5.464005e+000 -9.174998e+001 -8.476862e+000 1.336854e+002 -8.478274e+000 1.336393e+002 -6.114348e+000 -9.638642e+001
2300000000 -1.510243e+001 -1.132458e+002 -3.979473e+000 7.749266e+001 -3.980852e+000 7.747944e+001 -2.005029e+001 -1.252682e+002
2350000000 -2.437147e+001 -8.760357e+001 -2.721493e+000 3.205494e+001 -2.722129e+000 3.203759e+001 -2.475732e+001 -1.529241e+001
2400000000 -3.130482e+001 4.585161e+001 -2.247464e+000 -3.738133e+000 -2.253091e+000 -3.751421e+000 -2.311405e+001 2.495709e+001
2450000000 -1.996762e+001 4.509616e+001 -2.048508e+000 -3.454071e+001 -2.051698e+000 -3.454507e+001 -1.861608e+001 4.070883e+001
2500000000 -1.919155e+001 2.986135e+001 -1.951410e+000 -6.262966e+001 -1.954998e+000 -6.262870e+001 -1.800716e+001 3.766625e+001
2550000000 -2.695985e+001 6.017561e+001 -1.947572e+000 -9.015271e+001 -1.950100e+000 -9.015907e+001 -2.105299e+001 6.604240e+001
2600000000 -1.493595e+001 1.266693e+002 -2.276815e+000 -1.184595e+002 -2.281551e+000 -1.184730e+002 -1.392301e+001 1.098270e+002
2650000000 -7.780268e+000 1.092390e+002 -3.269671e+000 -1.466123e+002 -3.279862e+000 -1.466185e+002 -7.514973e+000 9.970850e+001
2700000000 -4.328228e+000 8.786988e+001 -4.962827e+000 -1.719005e+002 -4.973678e+000 -1.719125e+002 -4.221820e+000 8.143902e+001
2800000000 -1.696877e+000 5.398878e+001 -9.156283e+000 1.510662e+002 -9.182641e+000 1.510520e+002 -1.655162e+000 5.085199e+001
3000000000 -6.255116e-001 1.549500e+001 -1.625605e+001 1.096563e+002 -1.628677e+001 1.097108e+002 -6.019652e-001 1.470647e+001
3200000000 -4.034875e-001 -9.219391e+000 -2.120157e+001 8.426356e+001 -2.123727e+001 8.425797e+001 -3.841752e-001 -8.907288e+000
3400000000 -3.408497e-001 -2.932728e+001 -2.493135e+001 6.253837e+001 -2.495674e+001 6.257661e+001 -3.331617e-001 -2.827105e+001
3600000000 -3.103663e-001 -4.724463e+001 -2.787436e+001 4.321160e+001 -2.792100e+001 4.324197e+001 -3.047433e-001 -4.566795e+001
3800000000 -3.154801e-001 -6.440179e+001 -3.038781e+001 2.616836e+001 -3.041118e+001 2.618233e+001 -3.036508e-001 -6.234449e+001
4000000000 -3.293170e-001 -8.059179e+001 -3.283501e+001 9.016934e+000 -3.285963e+001 9.009384e+000 -2.966568e-001 -7.841042e+001
4200000000 -3.257432e-001 -9.637881e+001 -3.585630e+001 -8.805100e+000 -3.588361e+001 -8.806232e+000 -2.933230e-001 -9.431260e+001
4400000000 -3.304828e-001 -1.122813e+002 -3.723350e+001 -2.411843e+001 -3.724791e+001 -2.422951e+001 -3.216989e-001 -1.101831e+002
4600000000 -3.850644e-001 -1.278052e+002 -3.940377e+001 -5.602734e+001 -3.943079e+001 -5.602164e+001 -3.918889e-001 -1.257569e+002
4800000000 -3.911937e-001 -1.434479e+002 -4.238781e+001 -6.384103e+001 -4.239679e+001 -6.385855e+001 -4.040549e-001 -1.411285e+002
5000000000 -4.243218e-001 -1.586870e+002 -4.509935e+001 -9.758532e+001 -4.513693e+001 -9.767016e+001 -4.449376e-001 -1.565499e+002
6000000000 -4.096736e-001 1.252372e+002 -4.660604e+001 8.541133e+001 -4.660400e+001 8.550008e+001 -4.957448e-001 1.275285e+002
7200000000 -2.909958e-001 3.721176e+001 -4.217696e+001 -3.365349e+001 -4.223098e+001 -3.379705e+001 -4.305614e-001 4.303168e+001
8000000000 -3.813243e-001 -2.305232e+001 -4.255373e+001 -1.030675e+002 -4.259778e+001 -1.035172e+002 -3.008909e-001 -1.346028e+001
9333333333.3333 -5.192874e-001 -1.242247e+002 -4.615527e+001 1.478431e+002 -4.613142e+001 1.473673e+002 -6.551979e-001 -1.167595e+002
10666666666.667 4.629194e+000 8.650356e+001 -3.994880e+001 1.559227e+001 -3.934155e+001 1.621119e+001 -1.071840e+000 1.360653e+002
12000000000 -1.094689e+000 2.829686e+001 -3.644557e+001 -1.034070e+002 -3.643814e+001 -1.034487e+002 -1.153865e+000 3.272989e+001
