! Mini-Circuits								
! S2P DATA File Format								
! Type: BAND PASS FILTER								
! Model: VBFZ-2340-S+								
! All S Parameters are in dB deg format								
! TEST CONDITIONS: INPUT POWER = 0 dBm @ Temperature = + 25 deg C								
! 949 Frequency points								
!
# MHz S dB R 50
!Frequency     S11 dB   S11 DEG  S21 dB   S21 DEG  S12 dB   S12 DEG  S22 dB   S22 DEG  
  10.0000      0.01     -3.42     -77.99     131.77     -62.51     -63.89     0     -1.22     
  15.0000      0     -5.05     -77.24     39.13     -77.54     177.49     0     -1.82     
  20.0000      -0.02     -6.66     -82.91     37.45     -77.5     98.32     0     -2.37     
  25.0000      -0.02     -8.29     -87.27     56.8     -81.69     90.8     -0.01     -2.96     
  30.0000      -0.02     -9.97     -91.24     21.28     -91.14     56.95     0     -3.56     
  35.0000      -0.03     -11.53     -80.73     60.65     -83.21     81.78     0     -4.15     
  40.0000      -0.03     -13.12     -85.55     103.83     -83.56     103.59     -0.01     -4.74     
  45.0000      -0.03     -14.64     -81.75     -16.95     -78.13     126.08     0     -5.31     
  50.0000      -0.02     -16.29     -76.23     -93.44     -78.78     151.46     0     -5.93     
  55.0000      -0.02     -17.95     -82.58     116.76     -82.94     -16.08     0     -6.52     
  60.0000      -0.01     -19.58     -90.26     81.16     -83.66     108.86     0     -7.13     
  65.0000      -0.02     -21.23     -79.12     66.34     -89.92     147.44     0     -7.73     
  70.0000      -0.01     -22.89     -82.44     98.27     -82.19     79.36     0     -8.32     
  75.0000      -0.01     -24.53     -81.57     15.43     -88.93     107.78     0     -8.91     
  80.0000      -0.01     -26.17     -79.54     76.04     -84.76     87.55     0     -9.52     
  85.0000      -0.01     -27.83     -84.92     32.58     -84.81     43.22     0     -10.11     
  90.0000      -0.02     -29.47     -79.81     93.51     -80.39     45.87     0     -10.72     
  95.0000      -0.02     -31.11     -77.5     58.41     -82.59     79.32     0     -11.32     
 100.0000      -0.02     -32.75     -84.52     89.42     -79.85     55.56     -0.01     -11.93     
 105.0000      -0.03     -34.39     -80.08     93.67     -80.77     58.8     0     -12.54     
 110.0000      -0.03     -36.03     -77.5     66.2     -80.19     49.97     0     -13.13     
 115.0000      -0.03     -37.66     -73.83     53.35     -77.91     74.51     0     -13.73     
 120.0000      -0.04     -39.3     -84.85     67.83     -80.25     50.16     0     -14.34     
 125.0000      -0.04     -40.95     -79.22     60.27     -79.25     64.06     -0.01     -14.94     
 130.0000      -0.04     -42.59     -77.08     58.68     -77.85     61.53     -0.01     -15.53     
 135.0000      -0.05     -44.23     -81.02     57.34     -81.97     42.78     -0.01     -16.13     
 140.0000      -0.05     -45.87     -77.96     67.9     -80.87     66.18     -0.01     -16.72     
 145.0000      -0.05     -47.51     -76.5     52.87     -80.65     59.3     -0.01     -17.31     
 150.0000      -0.05     -49.14     -77.56     68.99     -78.88     50.94     -0.01     -17.91     
 155.0000      -0.06     -50.78     -78.43     57.42     -78.07     39.09     -0.01     -18.5     
 160.0000      -0.06     -52.43     -77.47     45.7     -77.81     46.36     -0.01     -19.1     
 165.0000      -0.06     -54.07     -77.47     47.17     -77.62     46.99     -0.01     -19.68     
 170.0000      -0.06     -55.71     -77.85     48.84     -79.27     51.62     -0.01     -20.28     
 175.0000      -0.06     -57.34     -75.21     49.75     -76.59     48.89     -0.01     -20.87     
 180.0000      -0.07     -58.98     -75.79     46.12     -76.72     46.33     -0.01     -21.46     
 185.0000      -0.07     -60.63     -76.15     42.5     -78.02     42.21     -0.01     -22.06     
 190.0000      -0.08     -62.25     -75.32     52.54     -77.42     42.8     -0.01     -22.65     
 195.0000      -0.08     -63.9     -74.51     38.01     -76.44     53.11     -0.02     -23.24     
 200.0000      -0.08     -65.53     -77.01     52.98     -78.05     49.15     -0.01     -23.84     
 205.0000      -0.08     -67.16     -75.04     48.28     -76.1     37.36     -0.01     -24.43     
 210.0000      -0.09     -68.81     -77.68     40.35     -74.59     39.08     -0.02     -25.03     
 215.0000      -0.09     -70.45     -76.49     33.21     -75.86     37.17     -0.02     -25.63     
 220.0000      -0.09     -72.09     -73.17     44.11     -75.34     33.53     -0.02     -26.23     
 225.0000      -0.1     -73.73     -73.11     37.63     -75.56     47.15     -0.02     -26.82     
 230.0000      -0.1     -75.37     -74.87     32.71     -75.99     41.44     -0.02     -27.42     
 235.0000      -0.11     -77.03     -76.07     35.25     -75.15     38.22     -0.02     -28.02     
 240.0000      -0.11     -78.68     -75.07     33.79     -75.11     35.58     -0.02     -28.62     
 245.0000      -0.11     -80.31     -75.6     39.08     -75.18     29.63     -0.02     -29.21     
 250.0000      -0.12     -81.95     -74.25     35.97     -75.43     35.03     -0.02     -29.82     
 255.0000      -0.12     -83.57     -75.65     30.8     -74.73     35.87     -0.02     -30.42     
 260.0000      -0.13     -85.2     -74     28.11     -74.09     22.68     -0.02     -31.02     
 265.0000      -0.13     -86.81     -74.61     30.57     -74.72     33.54     -0.02     -31.6     
 270.0000      -0.13     -88.44     -73.7     25.31     -75.3     26.49     -0.02     -32.21     
 275.0000      -0.14     -90.06     -73.67     26.37     -75.16     26.41     -0.02     -32.8     
 280.0000      -0.14     -91.7     -75.6     23.1     -73.39     26.66     -0.02     -33.4     
 285.0000      -0.15     -93.32     -74.99     33.01     -74.46     31.17     -0.02     -34     
 290.0000      -0.15     -94.94     -73.92     25.22     -74.22     24.19     -0.02     -34.59     
 295.0000      -0.15     -96.56     -73.65     24.6     -75.29     27.18     -0.02     -35.18     
 300.0000      -0.16     -98.19     -74.04     20.52     -73.75     14.63     -0.02     -35.79     
 305.0000      -0.17     -99.82     -74.75     21.61     -75.31     20.73     -0.02     -36.38     
 310.0000      -0.17     -101.45     -74.51     21.74     -74.78     27.42     -0.02     -36.97     
 315.0000      -0.17     -103.09     -73.96     20.68     -75.45     24.39     -0.03     -37.57     
 320.0000      -0.18     -104.73     -74.91     18.76     -74.63     19.2     -0.02     -38.16     
 325.0000      -0.18     -106.35     -73.61     16.68     -74.39     20.03     -0.03     -38.75     
 330.0000      -0.19     -107.99     -74.59     17.94     -73.82     18.51     -0.03     -39.35     
 335.0000      -0.19     -109.62     -73.23     14.69     -74.25     17.1     -0.03     -39.96     
 340.0000      -0.2     -111.24     -73.63     19.82     -74.04     19.38     -0.03     -40.54     
 345.0000      -0.2     -112.85     -74.36     14.07     -74.45     15.64     -0.03     -41.15     
 350.0000      -0.21     -114.48     -73.97     7     -74.78     16.53     -0.03     -41.75     
 355.0000      -0.21     -116.11     -73.68     6.28     -74.56     11.67     -0.03     -42.34     
 360.0000      -0.22     -117.72     -74.03     3.02     -74.41     13.01     -0.03     -42.92     
 365.0000      -0.22     -119.32     -73.1     4.61     -74.1     11.21     -0.03     -43.54     
 370.0000      -0.23     -120.95     -73.38     7.69     -74.5     13.16     -0.04     -44.13     
 375.0000      -0.24     -122.58     -73.59     10.91     -74.59     10.53     -0.03     -44.73     
 380.0000      -0.24     -124.19     -74.21     9.51     -74.46     7.59     -0.04     -45.33     
 385.0000      -0.25     -125.81     -73.36     8.59     -74.69     6.06     -0.03     -45.93     
 390.0000      -0.25     -127.43     -73.78     14.45     -73.75     10.12     -0.04     -46.53     
 395.0000      -0.26     -129.04     -73.7     4.88     -73.99     5.74     -0.03     -47.14     
 400.0000      -0.27     -130.67     -74.12     2.32     -74.91     3.76     -0.03     -47.73     
 405.0000      -0.28     -132.32     -74.83     5.78     -74.05     3.71     -0.04     -48.32     
 410.0000      -0.28     -133.92     -73.93     1.14     -74.2     4.85     -0.03     -48.94     
 415.0000      -0.29     -135.55     -74.05     2.59     -74.23     2.47     -0.04     -49.52     
 420.0000      -0.29     -137.18     -74.33     -0.74     -74.09     0.39     -0.04     -50.13     
 425.0000      -0.29     -138.77     -75.14     -4.88     -74.79     0.91     -0.04     -50.75     
 430.0000      -0.3     -140.38     -75.46     -0.59     -74.65     -2.08     -0.04     -51.33     
 435.0000      -0.3     -141.99     -74.77     -6.67     -74.19     -0.63     -0.04     -51.94     
 440.0000      -0.31     -143.61     -74.55     -10.77     -74.15     -1.68     -0.04     -52.53     
 445.0000      -0.32     -145.2     -74.93     -7.26     -74.66     -0.66     -0.04     -53.14     
 450.0000      -0.33     -146.79     -74.62     -8.56     -74.57     -4.77     -0.05     -53.74     
 455.0000      -0.33     -148.42     -74.86     -9.54     -74.05     -7.27     -0.05     -54.34     
 460.0000      -0.34     -149.99     -73.56     -8.65     -74.66     -4.69     -0.05     -54.94     
 465.0000      -0.34     -151.62     -74.39     -14.94     -74.7     -3.86     -0.04     -55.53     
 470.0000      -0.35     -153.24     -74.31     -7.09     -74.21     -13.94     -0.05     -56.14     
 475.0000      -0.36     -154.86     -74.12     -17.73     -75.33     -3.94     -0.05     -56.74     
 480.0000      -0.37     -156.47     -74.68     -12.96     -74.87     -10.56     -0.05     -57.34     
 485.0000      -0.37     -158.08     -74.36     -16.78     -75.41     -7.85     -0.05     -57.96     
 490.0000      -0.38     -159.7     -74.24     -16.26     -74.76     -14.38     -0.05     -58.55     
 495.0000      -0.39     -161.33     -74.23     -12.54     -74.5     -16.52     -0.05     -59.16     
 500.0000      -0.4     -162.96     -74.54     -12.76     -74.5     -14.9     -0.05     -59.75     
 505.0000      -0.4     -164.59     -75.21     -15.13     -73.97     -15.31     -0.05     -60.34     
 510.0000      -0.4     -166.2     -74.41     -13.68     -74.84     -14.09     -0.05     -60.96     
 515.0000      -0.41     -167.81     -74.3     -16.41     -74.26     -16.65     -0.05     -61.57     
 520.0000      -0.41     -169.44     -74.7     -19.07     -74.46     -19.83     -0.05     -62.17     
 525.0000      -0.42     -171.04     -74.34     -23.83     -74.6     -21.38     -0.06     -62.77     
 530.0000      -0.43     -172.65     -74.75     -21.45     -75.05     -19.83     -0.06     -63.38     
 535.0000      -0.43     -174.27     -74.55     -22.6     -74.61     -20.95     -0.06     -63.98     
 540.0000      -0.44     -175.85     -74.59     -21.05     -74.86     -18.48     -0.06     -64.57     
 545.0000      -0.45     -177.47     -75.07     -22.99     -74.88     -18     -0.06     -65.19     
 550.0000      -0.45     -179.08     -73.92     -20.15     -74.73     -25.24     -0.06     -65.79     
 555.0000      -0.46     179.31     -74.56     -25.13     -74.97     -25.01     -0.06     -66.38     
 560.0000      -0.46     177.69     -75.02     -26.65     -74.88     -27.58     -0.06     -66.99     
 565.0000      -0.47     176.06     -73.58     -32.04     -74.82     -29.39     -0.06     -67.6     
 570.0000      -0.47     174.43     -74.35     -29.43     -74.48     -31.28     -0.07     -68.19     
 575.0000      -0.48     172.8     -74.5     -33     -74.79     -32.11     -0.07     -68.8     
 580.0000      -0.49     171.15     -74.14     -29.68     -73.8     -28.65     -0.07     -69.41     
 585.0000      -0.49     169.54     -74.89     -33.57     -75.15     -30.46     -0.06     -70.02     
 590.0000      -0.5     167.92     -74.47     -33.82     -74.26     -32.62     -0.07     -70.63     
 595.0000      -0.5     166.3     -73.92     -28.62     -74.2     -32.51     -0.07     -71.24     
 600.0000      -0.5     164.68     -74.07     -35.94     -74.2     -33.77     -0.07     -71.84     
 605.0000      -0.51     163.06     -74.41     -36.25     -74.3     -34.69     -0.07     -72.45     
 610.0000      -0.51     161.48     -73.37     -40.21     -74.13     -37.61     -0.07     -73.05     
 615.0000      -0.52     159.87     -73.93     -41.84     -73.62     -39.34     -0.07     -73.66     
 620.0000      -0.52     158.26     -73.78     -43.95     -73.67     -37.83     -0.08     -74.28     
 625.0000      -0.53     156.65     -73.15     -42.09     -73.53     -42.75     -0.07     -74.89     
 630.0000      -0.54     155.04     -73.62     -44.8     -73.22     -44.7     -0.07     -75.49     
 635.0000      -0.54     153.43     -72.57     -43.47     -73.14     -45.05     -0.08     -76.11     
 640.0000      -0.55     151.8     -72.62     -45.75     -73.27     -44.37     -0.07     -76.71     
 645.0000      -0.56     150.17     -73.01     -47.34     -73.42     -45.72     -0.08     -77.33     
 650.0000      -0.56     148.55     -72.3     -47.24     -72.97     -45.84     -0.08     -77.94     
 655.0000      -0.57     146.92     -72.7     -50.31     -72.45     -48.24     -0.08     -78.55     
 660.0000      -0.57     145.29     -72     -49.81     -72.72     -51.86     -0.08     -79.16     
 665.0000      -0.58     143.66     -72.24     -54.1     -72.44     -50.63     -0.08     -79.78     
 670.0000      -0.58     142.03     -72.22     -51.71     -71.91     -53.98     -0.08     -80.39     
 675.0000      -0.59     140.39     -71.85     -54.5     -71.86     -53.66     -0.08     -81.01     
 680.0000      -0.59     138.77     -71.95     -57.16     -71.57     -52.8     -0.08     -81.62     
 685.0000      -0.59     137.14     -71.41     -57     -71.33     -54.99     -0.08     -82.24     
 690.0000      -0.6     135.51     -71.57     -56.12     -71.34     -56.48     -0.08     -82.85     
 695.0000      -0.6     133.88     -71.09     -61.01     -71.18     -59.59     -0.09     -83.47     
 700.0000      -0.6     132.25     -71.16     -61.08     -71.18     -62.24     -0.09     -84.08     
 705.0000      -0.61     130.62     -70.95     -60.02     -70.53     -60.4     -0.09     -84.7     
 710.0000      -0.61     128.99     -70     -63.71     -70.57     -61.74     -0.09     -85.32     
 715.0000      -0.62     127.34     -70.1     -65.39     -69.92     -62.8     -0.09     -85.94     
 720.0000      -0.62     125.71     -70.16     -68.08     -69.96     -64.97     -0.09     -86.56     
 725.0000      -0.63     124.07     -69.29     -68.17     -69.78     -66.45     -0.09     -87.16     
 730.0000      -0.63     122.42     -69.67     -66.72     -69.52     -67.52     -0.09     -87.8     
 735.0000      -0.64     120.78     -68.81     -67.81     -69.29     -69.85     -0.09     -88.4     
 740.0000      -0.64     119.14     -69.03     -72.52     -69.11     -71.03     -0.1     -89.03     
 745.0000      -0.65     117.49     -68.76     -73.69     -68.56     -72.12     -0.1     -89.65     
 750.0000      -0.65     115.86     -68.61     -74.03     -68.56     -72.35     -0.1     -90.27     
 755.0000      -0.65     114.21     -68.19     -73.9     -68.2     -72.26     -0.1     -90.88     
 760.0000      -0.66     112.56     -68.07     -75.28     -67.94     -76.48     -0.1     -91.51     
 765.0000      -0.66     110.9     -67.77     -75.11     -67.74     -76.53     -0.1     -92.13     
 770.0000      -0.66     109.27     -67.49     -78.54     -67.5     -76.5     -0.11     -92.76     
 775.0000      -0.67     107.62     -67.28     -80.77     -67.31     -79.73     -0.11     -93.38     
 780.0000      -0.67     105.98     -66.76     -80.62     -67.09     -81.13     -0.11     -94.01     
 785.0000      -0.67     104.34     -66.74     -82.73     -66.61     -82.29     -0.11     -94.63     
 790.0000      -0.68     102.7     -66.42     -81.46     -66.38     -82.13     -0.11     -95.26     
 795.0000      -0.68     101.05     -66.2     -85.02     -66.11     -84.01     -0.11     -95.88     
 800.0000      -0.69     99.42     -66.03     -85.67     -65.94     -85.97     -0.11     -96.51     
 805.0000      -0.69     97.76     -65.64     -87.86     -65.73     -86.95     -0.11     -97.14     
 810.0000      -0.69     96.11     -65.49     -87.62     -65.54     -88.03     -0.11     -97.76     
 815.0000      -0.7     94.45     -65.12     -88.96     -65.12     -89.15     -0.12     -98.4     
 820.0000      -0.7     92.79     -64.8     -89.84     -64.62     -90.14     -0.12     -99.03     
 825.0000      -0.7     91.12     -64.68     -91.48     -64.78     -91.4     -0.12     -99.66     
 830.0000      -0.71     89.47     -64.27     -93     -64.26     -92.34     -0.12     -100.3     
 835.0000      -0.71     87.81     -64.05     -94.36     -64.04     -94.84     -0.12     -100.93     
 840.0000      -0.71     86.14     -63.85     -95.99     -63.8     -94.69     -0.12     -101.57     
 845.0000      -0.71     84.48     -63.57     -97     -63.53     -96.49     -0.12     -102.21     
 850.0000      -0.72     82.81     -63.42     -97.78     -63.21     -97.95     -0.12     -102.85     
 855.0000      -0.72     81.13     -62.98     -99.7     -62.99     -99.02     -0.13     -103.49     
 860.0000      -0.72     79.47     -62.8     -99.85     -62.73     -99.67     -0.13     -104.13     
 865.0000      -0.72     77.8     -62.55     -101.65     -62.59     -101.5     -0.13     -104.78     
 870.0000      -0.72     76.13     -62.33     -102.03     -62.29     -101.8     -0.13     -105.42     
 875.0000      -0.72     74.45     -61.95     -104.06     -62.02     -103.46     -0.13     -106.07     
 880.0000      -0.73     72.78     -61.65     -105.99     -61.8     -104.89     -0.13     -106.72     
 885.0000      -0.73     71.09     -61.49     -106.48     -61.54     -105.79     -0.13     -107.36     
 890.0000      -0.73     69.4     -61.22     -107.54     -61.29     -107.11     -0.13     -108.02     
 895.0000      -0.74     67.71     -61.06     -109.04     -61.13     -108.63     -0.14     -108.65     
 900.0000      -0.74     66.02     -60.84     -110.19     -60.92     -109.36     -0.14     -109.31     
 905.0000      -0.74     64.34     -60.52     -111.07     -60.5     -111.37     -0.14     -109.95     
 910.0000      -0.74     62.64     -60.37     -112.99     -60.31     -112.2     -0.14     -110.6     
 915.0000      -0.74     60.94     -60.06     -113.51     -60.18     -113.72     -0.14     -111.25     
 920.0000      -0.75     59.25     -59.84     -115.08     -59.85     -114.37     -0.15     -111.91     
 925.0000      -0.75     57.55     -59.66     -115.69     -59.69     -115.79     -0.14     -112.57     
 930.0000      -0.75     55.87     -59.41     -116.57     -59.38     -116.99     -0.15     -113.22     
 935.0000      -0.75     54.17     -59.34     -118.08     -59.28     -117.9     -0.15     -113.88     
 940.0000      -0.76     52.47     -58.97     -119.46     -59.05     -119.41     -0.15     -114.53     
 945.0000      -0.75     50.76     -58.75     -120.59     -58.85     -120.66     -0.15     -115.2     
 950.0000      -0.76     49.06     -58.66     -121.74     -58.57     -121.68     -0.16     -115.87     
 955.0000      -0.76     47.34     -58.49     -123.47     -58.37     -122.92     -0.16     -116.52     
 960.0000      -0.76     45.64     -58.26     -124.54     -58.2     -123.77     -0.16     -117.19     
 965.0000      -0.76     43.93     -57.95     -125.46     -57.99     -125.42     -0.16     -117.85     
 970.0000      -0.76     42.21     -57.87     -126.36     -57.81     -126.34     -0.16     -118.52     
 975.0000      -0.77     40.48     -57.56     -127.91     -57.57     -127.69     -0.16     -119.19     
 980.0000      -0.76     38.74     -57.46     -128.2     -57.38     -128.32     -0.17     -119.85     
