!Agilent Technologies,N5242A,MY48320679,A.09.90.11
!Agilent N5242A: A.09.90.11
!Date: Thursday, September 10, 2015 15:28:43
!WITH PORT EXTENSION
!Correction: S11(Full 3 Port(1,2,3)) 
!S12(Full 3 Port(1,2,3))
!S13(Full 3 Port(1,2,3))
!S21(Full 3 Port(1,2,3))
!S22(Full 3 Port(1,2,3)) 
!S12(Full 3 Port(1,2,3))
!S31(Full 3 Port(1,2,3))
!S32(Full 3 Port(1,2,3))
!S33(Full 3 Port(1,2,3))
!S3P File: Measurements: <S11,S12,S13>,
!<S21,S22,S23>,
!<S31,S32,S33>:
# Hz S  dB   R 50
100000000 -10.261323 175.65752 -3.724246 -3.8514485 -3.7313476 -3.7561831
-3.7337079 -3.7608893 -11.138561 165.58348 -4.1678371 -8.4097528
-3.7224495 -3.7032087 -4.1658459 -8.2968931 -11.138053 165.25594
200000000 -10.354037 171.97279 -3.7337537 -7.3431673 -3.7344389 -7.471065
-3.7501326 -7.2716055 -11.467952 151.55191 -4.3844228 -16.172283
-3.7246232 -7.434895 -4.3719988 -16.200476 -11.422577 151.50897
300000000 -10.47465 168.57231 -3.755827 -10.877458 -3.7323663 -11.081679
-3.7847555 -10.882901 -11.805241 137.33733 -4.7259073 -23.484142
-3.7196672 -10.994874 -4.6896601 -23.732023 -11.836146 138.33096
400000000 -10.490822 164.99736 -3.7547269 -14.370119 -3.7613609 -14.450558
-3.7436755 -14.351627 -12.171112 125.47116 -5.0610275 -30.535639
-3.7540696 -14.434132 -5.0631499 -30.573116 -12.140227 125.35771
500000000 -10.589889 161.29291 -3.7689073 -17.896225 -3.7609587 -17.95715
-3.7595577 -17.868164 -12.523828 112.77392 -5.5112085 -36.90794
-3.7575133 -17.939035 -5.5087218 -36.927338 -12.501766 112.80498
600000000 -10.681557 157.13388 -3.7621324 -21.402481 -3.7694206 -21.411972
-3.7635252 -21.404484 -12.840658 100.72897 -5.9938149 -42.842384
-3.7659397 -21.422094 -5.9938736 -42.828758 -12.789258 100.84481
700000000 -10.738777 152.69699 -3.7784226 -24.844107 -3.7793601 -24.853632
-3.7750411 -24.843784 -13.09147 89.176979 -6.5072351 -48.24324
-3.774555 -24.829941 -6.5013714 -48.20789 -13.068943 89.437027
800000000 -10.776165 148.52863 -3.7816739 -28.319475 -3.7866728 -28.23712
-3.7860928 -28.266417 -13.287437 78.291573 -7.019269 -53.168476
-3.7823963 -28.223747 -7.0185938 -53.146294 -13.250967 78.743805
900000000 -10.889657 144.06401 -3.7780173 -31.654306 -3.7848225 -31.655416
-3.7793434 -31.619225 -13.4128 68.788284 -7.5553617 -57.832577
-3.7835419 -31.661793 -7.5583797 -57.85746 -13.375543 69.205688
1000000000 -11.001656 139.0309 -3.7789149 -35.102551 -3.7818904 -35.105289
-3.7836585 -35.064732 -13.460953 60.119217 -8.1071596 -62.089214
-3.7792158 -35.09449 -8.1106682 -62.090916 -13.428275 60.646042
1100000000 -11.103259 133.57567 -3.7823231 -38.540157 -3.7757797 -38.519501
-3.7820268 -38.499313 -13.467024 52.463615 -8.6416006 -65.86161
-3.7741413 -38.510593 -8.6448679 -65.815842 -13.454462 52.995918
1200000000 -11.192385 128.41971 -3.7743704 -41.882309 -3.7723234 -41.894943
-3.7713578 -41.865646 -13.490916 45.725082 -9.176383 -69.480682
-3.7694881 -41.875557 -9.1713581 -69.511513 -13.484502 46.459991
1300000000 -11.345958 122.72242 -3.7686894 -45.34597 -3.7591033 -45.296097
-3.7632236 -45.298656 -13.526556 40.060253 -9.7027464 -72.873253
-3.7567654 -45.296082 -9.7107525 -72.874886 -13.505104 40.781223
1400000000 -11.490812 116.84917 -3.753125 -48.734745 -3.7569408 -48.74073
-3.757221 -48.735657 -13.546515 35.112694 -10.228428 -75.907776
-3.7505355 -48.731239 -10.227555 -75.877228 -13.55817 36.009705
1500000000 -11.615065 110.89363 -3.7470021 -52.206726 -3.7441599 -52.180416
-3.7490387 -52.169544 -13.619068 30.734671 -10.730505 -78.744141
-3.7448623 -52.174942 -10.733585 -78.696754 -13.625868 31.757809
1600000000 -11.74864 105.21772 -3.739018 -55.612202 -3.7339613 -55.600731
-3.7364116 -55.571766 -13.722762 26.953144 -11.201777 -81.331062
-3.7318633 -55.577938 -11.209652 -81.327301 -13.739279 27.921589
1700000000 -11.94549 99.553299 -3.7260773 -59.065128 -3.7215493 -59.046391
-3.7194521 -59.001545 -13.883816 23.644903 -11.675037 -83.889183
-3.7162054 -59.03302 -11.672303 -83.939758 -13.927469 24.727886
1800000000 -12.110454 93.880089 -3.709363 -62.52058 -3.7055266 -62.522827
-3.7121632 -62.467319 -14.10064 20.733156 -12.122797 -86.258904
-3.7036145 -62.522194 -12.136166 -86.266701 -14.143797 21.824493
1900000000 -12.341471 88.663643 -3.6950545 -65.966354 -3.6872313 -65.947243
-3.6914377 -65.939247 -14.366319 17.868876 -12.543858 -88.644035
-3.6846874 -65.935204 -12.541731 -88.562508 -14.432606 19.027054
2000000000 -12.541225 83.227478 -3.6876619 -69.439651 -3.675648 -69.482788
-3.6828659 -69.393745 -14.696396 15.509732 -12.970469 -90.705482
-3.6738749 -69.470619 -12.981704 -90.62587 -14.790484 16.613926
2100000000 -12.769991 78.624168 -3.6637592 -72.927452 -3.6574693 -73.006042
-3.6632862 -72.915459 -15.138916 12.800964 -13.359426 -93.057449
-3.656673 -72.95681 -13.368554 -93.027893 -15.256722 14.068985
2200000000 -13.012253 73.936897 -3.6576207 -76.447594 -3.646364 -76.496048
-3.6527305 -76.438736 -15.619998 10.191227 -13.741148 -95.157845
-3.6406169 -76.457275 -13.743974 -95.10041 -15.754804 11.649532
2300000000 -13.284398 70.303619 -3.6433346 -79.970863 -3.6304765 -79.980072
-3.6404333 -79.91526 -16.218014 7.3784008 -14.070197 -97.351936
-3.6223955 -79.959435 -14.081828 -97.362724 -16.3822 8.7389259
2400000000 -13.574803 66.930984 -3.6300678 -83.50676 -3.6123593 -83.512283
-3.6299124 -83.47541 -16.906689 4.2064157 -14.409249 -99.647797
-3.6114178 -83.513847 -14.420777 -99.718285 -17.096476 5.6567369
2500000000 -13.905913 64.034622 -3.6232407 -87.034569 -3.6024604 -87.055191
-3.6186175 -86.995186 -17.66493 0.47426042 -14.731213 -101.89099
-3.5999401 -87.05069 -14.731844 -101.88042 -17.894041 1.9498783
2600000000 -14.186228 61.721352 -3.608104 -90.574959 -3.5960004 -90.60479
-3.6067836 -90.535088 -18.538126 -3.7605524 -15.029504 -104.43335
-3.5878978 -90.612785 -15.036379 -104.47913 -18.827883 -2.226804
2700000000 -14.505857 60.113739 -3.6016788 -94.142868 -3.5815957 -94.164948
-3.5983434 -94.115501 -19.469717 -8.7189779 -15.33616 -107.05096
-3.5785923 -94.185379 -15.356023 -107.04063 -19.858416 -7.3046656
2800000000 -14.816695 58.62981 -3.5870762 -97.679382 -3.5709758 -97.728401
-3.588968 -97.665154 -20.557232 -14.607808 -15.646806 -110.03726
-3.5711315 -97.726891 -15.659724 -109.96971 -21.027672 -13.547028
2900000000 -15.131225 57.852562 -3.5834875 -101.21044 -3.5649338 -101.32368
-3.5839951 -101.2356 -21.599834 -21.660089 -15.956462 -113.05716
-3.5630972 -101.28271 -15.95804 -112.98049 -22.207802 -20.861275
3000000000 -15.40556 56.880093 -3.5818057 -104.81696 -3.5622084 -104.86507
-3.5807512 -104.76131 -22.660336 -29.807707 -16.300129 -116.10934
-3.5574467 -104.89019 -16.301147 -116.04211 -23.321892 -30.02779
3100000000 -15.656933 56.661472 -3.577723 -108.35549 -3.551743 -108.478
-3.5778403 -108.35411 -23.832159 -39.62709 -16.644215 -119.71154
-3.5522668 -108.4381 -16.643108 -119.69853 -24.464937 -40.589336
3200000000 -15.945262 56.161076 -3.5730774 -111.91679 -3.5508702 -112.02654
-3.5696769 -111.92911 -24.672121 -50.317509 -16.990444 -123.26287
-3.5465937 -111.99685 -16.996126 -123.31072 -25.317186 -52.797539
3300000000 -16.20602 55.596798 -3.5704715 -115.4729 -3.5468574 -115.5887
-3.5714819 -115.47145 -25.43705 -61.251472 -17.403996 -127.02969
-3.5451713 -115.56638 -17.412327 -127.00504 -25.980408 -65.188087
3400000000 -16.488066 54.822132 -3.566334 -119.02444 -3.5384989 -119.16189
-3.5650525 -118.98971 -25.964319 -72.425667 -17.808863 -131.07527
-3.5372245 -119.14865 -17.824421 -131.00314 -26.332205 -77.680328
3500000000 -16.802147 54.328449 -3.5623333 -122.56573 -3.539803 -122.71857
-3.5602968 -122.55042 -26.257122 -83.06041 -18.277636 -135.11552
-3.5333216 -122.71364 -18.26281 -135.16739 -26.496058 -87.653069
3600000000 -17.18811 53.093853 -3.5590022 -126.17395 -3.5368369 -126.29551
-3.5560899 -126.13152 -26.630224 -91.789848 -18.77438 -139.54224
-3.5273752 -126.27717 -18.773802 -139.47198 -26.640797 -96.221893
3700000000 -17.630344 52.463264 -3.555017 -129.67943 -3.527703 -129.85387
-3.5494895 -129.66173 -26.983423 -99.492699 -19.305159 -143.96875
-3.5242527 -129.86435 -19.313507 -144.11722 -26.981747 -103.72529
3800000000 -18.22682 51.503334 -3.5488231 -133.29854 -3.5198565 -133.44359
-3.5448074 -133.22102 -27.560644 -105.31602 -19.896585 -148.73688
-3.5199921 -133.45418 -19.910379 -148.66209 -27.450302 -108.62042
3900000000 -18.8887 50.85178 -3.5362809 -136.85406 -3.5119312 -137.04236
-3.5379281 -136.86343 -28.367435 -111.21265 -20.513159 -153.87178
-3.5114632 -137.04463 -20.506699 -153.84233 -28.163815 -113.9276
4000000000 -19.716726 50.44746 -3.5349274 -140.46449 -3.5050025 -140.6391
-3.5245564 -140.44554 -29.669783 -116.58392 -21.177963 -159.09866
-3.5027003 -140.64056 -21.20966 -158.89647 -29.463198 -117.26046
4100000000 -20.642168 50.68544 -3.5274704 -144.06868 -3.5005906 -144.26112
-3.5267019 -144.04698 -31.63339 -122.01725 -21.939808 -164.89613
-3.4961019 -144.26555 -21.918835 -164.79094 -31.44154 -122.52528
4200000000 -21.812263 52.350582 -3.5194166 -147.71248 -3.4921653 -147.90753
-3.5198319 -147.67183 -34.707787 -129.49757 -22.742649 -170.86803
-3.4931922 -147.89096 -22.757729 -170.70616 -34.508327 -127.15035
4300000000 -22.934212 54.821877 -3.5160801 -151.34088 -3.4900641 -151.55795
-3.5155256 -151.32945 -39.463074 -142.29355 -23.593224 -177.11929
-3.4860032 -151.57089 -23.604261 -176.85789 -40.153996 -133.98355
4400000000 -24.261263 60.979187 -3.5142546 -155.01115 -3.4888029 -155.21045
-3.5133059 -154.97185 -47.662785 147.02594 -24.56563 175.77821
-3.4823124 -155.21027 -24.546652 175.98788 -53.941288 124.96687
4500000000 -25.329916 69.256264 -3.509999 -158.68526 -3.4855719 -158.87897
-3.5147541 -158.64975 -39.472164 80.879929 -25.591679 168.53224
-3.4868724 -158.87032 -25.647301 168.6929 -39.034824 62.605896
4600000000 -25.949692 81.586517 -3.5143862 -162.34113 -3.4899008 -162.55156
-3.511761 -162.29643 -33.880138 67.759926 -26.749376 160.17387
-3.4871283 -162.55789 -26.769783 160.33449 -32.936638 56.624634
4700000000 -26.047201 91.843338 -3.5185537 -166.03235 -3.491725 -166.24098
-3.5209959 -165.99525 -30.465982 62.06992 -27.932999 151.67278
-3.4893482 -166.25291 -27.898209 151.41141 -29.556496 54.644138
4800000000 -25.219973 99.449623 -3.5231428 -169.73569 -3.4991612 -169.91501
-3.525245 -169.62563 -28.072111 60.305367 -29.034788 142.02113
-3.4962833 -169.92287 -29.039064 142.07413 -27.065897 53.965267
4900000000 -24.186237 105.40492 -3.5345225 -173.35551 -3.5110874 -173.59908
-3.532686 -173.34711 -26.099295 58.814991 -30.07902 130.53091
-3.5044246 -173.59839 -30.126078 130.25887 -25.180532 53.135284
5000000000 -23.287582 106.75275 -3.5413821 -177.01736 -3.5153098 -177.28667
-3.543016 -177.01402 -24.731657 58.000923 -31.019501 118.04204
-3.51582 -177.29445 -31.048689 118.14975 -23.648436 53.373825
5100000000 -22.261335 106.56637 -3.5531278 179.30583 -3.5292492 179.07423
-3.5568779 179.33496 -23.46784 57.643196 -31.727976 104.09395
-3.5279143 179.0423 -31.723534 104.04024 -22.440025 53.18856
5200000000 -21.488134 104.07235 -3.5647676 175.66574 -3.5404701 175.38823
-3.5647881 175.69064 -22.559855 57.14687 -32.276291 89.570068
-3.5390053 175.40543 -32.327343 90.53598 -21.47086 53.796509
5300000000 -20.781816 100.30127 -3.5801575 172.00435 -3.5505738 171.74619
-3.5760872 172.04817 -21.725819 57.297665 -32.337852 76.137764
-3.550822 171.74461 -32.32925 76.49958 -20.639233 54.083237
5400000000 -20.238531 95.950638 -3.5906494 168.36983 -3.5662422 168.11018
-3.5874414 168.40608 -21.094927 57.435684 -32.180744 63.719784
-3.5656884 168.09877 -32.175358 63.362984 -19.967989 54.986557
5500000000 -19.676876 90.767937 -3.5991163 164.72331 -3.5778418 164.4778
-3.6000872 164.74353 -20.55768 57.550465 -31.773682 52.645149
-3.5762098 164.43494 -31.765179 52.71069 -19.390688 55.694283
5600000000 -19.28299 84.782272 -3.6123815 161.09958 -3.5905373 160.79617
-3.6135788 161.15074 -20.121302 57.640118 -31.264421 43.604954
-3.5865955 160.84808 -31.242586 43.7812 -18.910223 56.511696
5700000000 -18.842876 78.863083 -3.6221213 157.45497 -3.6020169 157.17796
-3.6261866 157.50255 -19.726814 57.528278 -30.708317 35.207371
-3.6001043 157.20461 -30.700981 35.127426 -18.505356 57.107391
5800000000 -18.547604 72.609436 -3.6303558 153.82617 -3.6168246 153.56168
-3.6342492 153.85548 -19.447701 57.367496 -30.227428 28.40814
-3.6084073 153.5742 -30.236315 28.53966 -18.237856 57.579479
5900000000 -18.189543 66.312607 -3.6481209 150.20213 -3.6276705 149.91145
-3.6482747 150.19881 -19.191813 57.280533 -29.614832 23.475027
-3.6201594 149.9162 -29.59239 23.524754 -17.939054 57.929363
6000000000 -17.864895 60.021034 -3.6537893 146.51996 -3.6326077 146.26947
-3.6560771 146.56247 -18.974371 56.509388 -29.044483 18.846621
-3.6320336 146.26251 -29.086472 18.738237 -17.743431 58.176064
6100000000 -17.494036 54.449398 -3.664907 142.87695 -3.6443048 142.62164
-3.6631818 142.93362 -18.757801 55.508366 -28.418694 15.040799
-3.6465495 142.64294 -28.467308 15.078744 -17.518389 57.868874
6200000000 -17.257526 49.113827 -3.6761289 139.27693 -3.660434 138.99005
-3.6776032 139.25319 -18.60725 54.139938 -27.891491 10.56532
-3.6525607 138.99026 -27.926516 10.357735 -17.439844 57.184864
6300000000 -16.94479 43.712662 -3.6843383 135.59303 -3.663202 135.35515
-3.6894631 135.60742 -18.474092 52.253525 -27.458033 7.5104213
-3.667572 135.36311 -27.414549 7.7090716 -17.370682 56.433159
6400000000 -16.714239 38.816662 -3.694005 131.97519 -3.6784904 131.73714
-3.6982846 131.98097 -18.357185 50.135941 -26.926079 4.1448741
-3.6729777 131.71936 -26.889009 4.0542316 -17.342676 55.209255
6500000000 -16.406738 34.449558 -3.7092426 128.30321 -3.6864135 128.08614
-3.7065501 128.27966 -18.216665 47.511833 -26.352993 1.0016767
-3.6836495 128.0481 -26.342154 1.2512623 -17.295443 53.562893
6600000000 -16.195402 30.415676 -3.7169287 124.62463 -3.6944797 124.4006
-3.7203999 124.65417 -18.146076 44.373924 -25.840445 -2.5226769
-3.6978168 124.40773 -25.829489 -2.2890592 -17.357428 51.188679
6700000000 -15.903218 26.591026 -3.730458 120.91476 -3.707093 120.75395
-3.7319345 120.97648 -18.001989 41.117062 -25.332386 -5.2587214
-3.7020588 120.73837 -25.343885 -5.1757531 -17.350079 48.503223
6800000000 -15.684335 23.14012 -3.7430298 117.29107 -3.7131321 117.08935
-3.7449477 117.3186 -17.877289 37.638412 -24.881227 -8.887064
-3.7152648 117.08828 -24.919079 -8.9171181 -17.409889 45.553192
6900000000 -15.411453 19.692455 -3.7566254 113.62236 -3.725193 113.42023
-3.7539232 113.64328 -17.726847 34.02877 -24.484459 -11.975694
-3.7240539 113.39821 -24.49864 -11.994272 -17.479498 42.133862
7000000000 -15.193227 16.528351 -3.7719009 109.95538 -3.7361159 109.76226
-3.7651112 109.99003 -17.552755 30.365211 -24.067732 -15.645596
-3.7379911 109.75974 -24.074186 -15.548074 -17.499828 38.243912
7100000000 -14.952509 13.227035 -3.7790821 106.29704 -3.7450895 106.08947
-3.7794027 106.32278 -17.355074 26.556664 -23.715618 -19.226768
-3.7400262 106.09459 -23.720972 -19.2425 -17.498007 34.302437
7200000000 -14.765094 10.123102 -3.7889154 102.66229 -3.7544811 102.45251
-3.7899258 102.68878 -17.192148 23.243048 -23.398611 -22.921488
-3.7492089 102.45576 -23.414585 -22.973629 -17.526169 30.222164
7300000000 -14.55551 6.9741268 -3.8096282 98.988625 -3.7596447 98.79641
-3.8051014 99.05056 -17.029917 20.12302 -23.120438 -26.73472
-3.7598498 98.771561 -23.163074 -26.635487 -17.487535 26.436543
7400000000 -14.462405 3.445606 -3.8105078 95.360352 -3.7707665 95.136833
-3.8171654 95.392464 -16.894344 17.30448 -22.909317 -30.666307
-3.7643974 95.157967 -22.930994 -30.662642 -17.454069 22.484159
7500000000 -14.356105 -0.0057417555 -3.8211954 91.737595 -3.7755005 91.532028
-3.8293533 91.728325 -16.759563 14.781464 -22.69104 -34.525307
-3.7791064 91.47123 -22.711561 -34.485592 -17.41888 18.741137
7600000000 -14.328018 -4.0034366 -3.8301303 88.110481 -3.7817802 87.843994
-3.8259315 88.142334 -16.726822 12.695199 -22.560799 -38.673672
-3.7745337 87.858551 -22.563246 -38.465496 -17.398849 15.653576
7700000000 -14.311461 -7.7709651 -3.828301 84.433022 -3.7789321 84.218513
-3.8330736 84.493668 -16.708956 11.027905 -22.445505 -42.531334
-3.7825556 84.165756 -22.453049 -42.54002 -17.400017 12.86881
7800000000 -14.39927 -11.875431 -3.8312898 80.824295 -3.782439 80.553848
-3.8313973 80.838478 -16.772076 9.7411156 -22.398022 -46.411549
-3.7777739 80.515137 -22.393154 -46.079552 -17.400894 10.394413
7900000000 -14.492344 -16.041233 -3.8285618 77.153931 -3.7796619 76.883537
-3.8365905 77.219002 -16.885098 8.5950861 -22.366928 -50.31966
-3.7799129 76.85804 -22.355827 -50.567024 -17.453527 8.2506514
8000000000 -14.746731 -20.703667 -3.8255126 73.50161 -3.7762723 73.170906
-3.8286548 73.530029 -17.071533 8.1490097 -22.419487 -54.414642
-3.7710021 73.168907 -22.424812 -54.105358 -17.52499 6.9739704
8100000000 -15.014021 -25.607277 -3.8195477 69.773941 -3.7655606 69.472115
-3.8161869 69.876503 -17.296932 7.8244786 -22.449358 -58.074749
-3.7668099 69.47979 -22.46456 -57.985001 -17.671883 5.9385386
8200000000 -15.386626 -30.426964 -3.8170016 66.129745 -3.7577777 65.750366
-3.8119702 66.14399 -17.643044 8.0953312 -22.543097 -62.045704
-3.7557061 65.757629 -22.524658 -61.965607 -17.840378 5.2029839
8300000000 -15.816607 -35.61657 -3.7992158 62.376282 -3.7485714 62.014114
-3.8034992 62.398937 -18.073338 9.09937 -22.705193 -65.658913
-3.7493351 61.994152 -22.685892 -65.815742 -18.09318 5.3542218
8400000000 -16.40745 -40.918518 -3.7841606 58.646854 -3.7420166 58.255886
-3.7986887 58.698925 -18.573427 10.167658 -22.846849 -69.58976
-3.7409234 58.25631 -22.890375 -69.416252 -18.431585 6.1722245
8500000000 -17.004196 -46.926502 -3.7778196 54.856995 -3.7352521 54.442509
-3.7837713 54.881508 -19.166882 12.209813 -23.116451 -72.698036
-3.7332659 54.444466 -23.111029 -72.842804 -18.775408 7.5447297
8600000000 -17.759083 -52.158176 -3.7687907 51.059692 -3.7255347 50.66964
-3.7721262 51.091221 -19.879869 14.419797 -23.344439 -76.576942
-3.7267747 50.629948 -23.311691 -76.482117 -19.205448 9.3421183
8700000000 -18.634161 -57.883076 -3.760493 47.223778 -3.7151544 46.810833
-3.761534 47.245113 -20.67766 17.995064 -23.664013 -80.187279
-3.7169874 46.826283 -23.665127 -79.864914 -19.685659 11.906886
8800000000 -19.761021 -64.113548 -3.7485375 43.377586 -3.7091119 42.966335
-3.7534981 43.406429 -21.543394 22.340794 -24.089981 -83.241501
-3.7081535 42.971252 -24.090357 -83.266212 -20.24 15.398428
8900000000 -20.811056 -70.86319 -3.7460778 39.486046 -3.7073839 39.074947
-3.7480762 39.519478 -22.391508 27.501589 -24.507271 -86.287567
-3.7048419 39.045586 -24.497086 -86.315796 -20.69454 19.34547
9000000000 -22.213459 -76.970856 -3.7365732 35.612759 -3.6990166 35.187508
-3.7427409 35.61615 -23.29303 33.885372 -24.948065 -89.106094
-3.7026322 35.21133 -24.989801 -88.985115 -21.147549 24.156794
9100000000 -23.812981 -82.617775 -3.7427082 31.723476 -3.7001734 31.318012
-3.7388313 31.739868 -24.070938 41.247005 -25.374807 -91.649986
-3.6972806 31.305229 -25.440508 -91.831635 -21.615854 29.5966
9200000000 -25.895687 -89.810944 -3.7348332 27.81069 -3.6986744 27.405128
-3.7350414 27.791088 -24.738697 50.117882 -25.991016 -94.310707
-3.7005227 27.389082 -26.049355 -94.401566 -21.861816 35.529522
9300000000 -28.276072 -97.198013 -3.7357707 23.879496 -3.6977661 23.494654
-3.741152 23.890909 -25.139338 59.523979 -26.570814 -96.686676
-3.7033033 23.468201 -26.611252 -96.457802 -22.062567 42.020336
9400000000 -31.586458 -106.81013 -3.7389901 19.892138 -3.7051861 19.507723
-3.7398353 19.955889 -25.291294 68.751488 -27.312374 -98.889854
-3.7057483 19.545931 -27.355417 -98.607246 -22.049744 48.455944
9500000000 -36.510025 -118.97334 -3.741504 15.974059 -3.7123151 15.600623
-3.7456968 16.021782 -25.163303 77.379745 -27.975645 -100.76186
-3.7061906 15.611473 -28.003265 -100.79623 -22.040314 54.490875
9600000000 -45.050262 -177.686 -3.7521024 12.035901 -3.7191164 11.679866
-3.7473543 12.03481 -24.799946 84.98645 -28.823174 -102.26579
-3.7190552 11.660605 -28.818253 -102.46287 -21.722752 60.752766
9700000000 -39.797165 98.5588 -3.7537165 8.0616922 -3.7219207 7.7254109
